  can1  281   [8]  5B 00 00 00 1A F1 01 00
  can1  282   [8]  FE FF FF FF 00 00 00 00
  can1  283   [8]  F7 FF FF FF 00 00 00 00
  can1  284   [8]  00 00 00 00 00 00 00 00
  can1  382   [2]  00 00
  can1  383   [2]  00 00
  can1  384   [2]  FC FF
  can1  381   [2]  7B 01
  can1  481   [6]  37 46 D2 11 02 00
  can1  080   [0] 
  can1  284   [8]  00 00 00 00 00 00 00 00
  can1  281   [8]  DB 00 00 00 AA E9 01 00
  can1  282   [8]  FE FF FF FF 00 00 00 00
  can1  283   [8]  F7 FF FF FF 00 00 00 00
  can1  382   [2]  00 00
  can1  383   [2]  00 00
  can1  384   [2]  00 00
  can1  381   [2]  2A 02
  can1  0F1   [8]  0B 05 14 00 B8 FF EF FE
  can1  0F9   [8]  0B F9 6E 05 E5 F5 19 01
  can1  0F2   [8]  25 08 7C 02 32 00 00 00
  can1  0FA   [8]  09 01 5E 1B 70 00 00 00
  can1  080   [0] 
  can1  281   [8]  60 01 00 00 5C 04 02 00
  can1  282   [8]  FE FF FF FF 00 00 00 00
  can1  283   [8]  F7 FF FF FF 00 00 00 00
  can1  284   [8]  00 00 00 00 00 00 00 00
  can1  382   [2]  00 00
  can1  383   [2]  00 00
  can1  384   [2]  00 00
  can1  381   [2]  DB 01
  can1  080   [0] 
  can1  284   [8]  00 00 00 00 00 00 00 00
  can1  281   [8]  E8 01 00 00 35 0A 02 00
  can1  282   [8]  FE FF FF FF 00 00 00 00
  can1  283   [8]  F7 FF FF FF 00 00 00 00
  can1  382   [2]  00 00
  can1  383   [2]  00 00
  can1  384   [2]  00 00
  can1  381   [2]  A6 01
  can1  0F1   [8]  0B 04 E8 00 6E 00 07 FE
  can1  0F9   [8]  0B F9 7F 05 D2 F5 21 01
  can1  0F2   [8]  11 08 9F 01 F4 00 00 00
  can1  0FA   [8]  06 01 54 1B 8D 00 00 00
  can1  080   [0] 
  can1  281   [8]  6E 02 00 00 66 19 02 00
  can1  282   [8]  FE FF FF FF 00 00 00 00
  can1  283   [8]  F7 FF FF FF 00 00 00 00
  can1  284   [8]  00 00 00 00 00 00 00 00
  can1  382   [2]  00 00
  can1  383   [2]  00 00
  can1  384   [2]  FC FF
  can1  381   [2]  D1 01
  can1  080   [0] 
  can1  284   [8]  00 00 00 00 00 00 00 00
  can1  281   [8]  FD 02 00 00 69 35 02 00
  can1  282   [8]  FE FF FF FF 00 00 00 00
  can1  283   [8]  F7 FF FF FF 00 00 00 00
  can1  382   [2]  00 00
  can1  384   [2]  FC FF
  can1  383   [2]  FC FF
  can1  381   [2]  62 01
  can1  0F1   [8]  0B 05 0E 00 A8 00 3C FE
  can1  0F9   [8]  0B F9 6D 05 F2 F5 23 01
  can1  0F2   [8]  0E 08 84 02 3E 00 00 00
  can1  0FA   [8]  08 01 49 1B 84 00 00 00
  can1  080   [0] 
  can1  281   [8]  88 03 00 00 60 27 02 00
  can1  282   [8]  FE FF FF FF 00 00 00 00
  can1  283   [8]  F7 FF FF FF 00 00 00 00
  can1  284   [8]  00 00 00 00 00 00 00 00
  can1  382   [2]  00 00
  can1  383   [2]  00 00
  can1  384   [2]  00 00
  can1  381   [2]  B4 01
  can1  080   [0] 
  can1  284   [8]  00 00 00 00 00 00 00 00
  can1  281   [8]  17 04 00 00 1D 2C 02 00
  can1  282   [8]  FE FF FF FF 00 00 00 00
  can1  283   [8]  F7 FF FF FF 00 00 00 00
  can1  382   [2]  00 00
  can1  384   [2]  FC FF
  can1  383   [2]  FC FF
  can1  381   [2]  8A 02
  can1  0F1   [8]  0B 05 0E 00 AB 00 1C FE
  can1  0F9   [8]  0B F9 71 05 CD F5 26 00
  can1  0F2   [8]  08 08 66 02 2B 00 00 00
  can1  0FA   [8]  FD 01 6A 1B 6B 00 00 00
  can1  080   [0] 
  can1  282   [8]  FE FF FF FF 00 00 00 00
  can1  281   [8]  A5 04 00 00 AE 1F 02 00
  can1  283   [8]  F7 FF FF FF 00 00 00 00
  can1  284   [8]  00 00 00 00 00 00 00 00
  can1  382   [2]  00 00
  can1  383   [2]  00 00
  can1  384   [2]  00 00
  can1  381   [2]  CD 01
  can1  080   [0] 
  can1  284   [8]  00 00 00 00 00 00 00 00
  can1  281   [8]  32 05 00 00 7F 2C 02 00
  can1  282   [8]  FE FF FF FF 00 00 00 00
  can1  283   [8]  F7 FF FF FF 00 00 00 00
  can1  382   [2]  00 00
  can1  383   [2]  00 00
  can1  384   [2]  FC FF
  can1  381   [2]  B8 01
  can1  0F1   [8]  0B 05 08 00 9B 00 39 FE
  can1  0F9   [8]  0B F9 62 05 ED F5 2D 01
  can1  0F2   [8]  09 08 82 02 10 00 00 00
  can1  0FA   [8]  16 01 6D 1B 7D 00 00 00
  can1  080   [0] 
  can1  282   [8]  FE FF FF FF 00 00 00 00
  can1  283   [8]  F7 FF FF FF 00 00 00 00
  can1  281   [8]  C1 05 00 00 5F 2E 02 00
  can1  284   [8]  00 00 00 00 00 00 00 00
  can1  382   [2]  FC FF
  can1  383   [2]  FC FF
  can1  384   [2]  FC FF
  can1  381   [2]  A2 01
  can1  080   [0] 
  can1  284   [8]  00 00 00 00 00 00 00 00
  can1  281   [8]  4C 06 00 00 92 2C 02 00
  can1  282   [8]  FE FF FF FF 00 00 00 00
  can1  283   [8]  F7 FF FF FF 00 00 00 00
  can1  383   [2]  00 00
  can1  382   [2]  00 00
  can1  384   [2]  00 00
  can1  381   [2]  06 02
  can1  0F1   [8]  0B 05 10 00 C5 00 2B FE
  can1  0F9   [8]  0B F9 57 05 EE F5 1E 00
  can1  0F2   [8]  38 08 80 02 36 00 00 00
  can1  0FA   [8]  FF 01 6B 1B 88 00 00 00
  can1  080   [0] 
  can1  282   [8]  FE FF FF FF 00 00 00 00
  can1  281   [8]  DB 06 00 00 ED 20 02 00
  can1  283   [8]  F7 FF FF FF 00 00 00 00
  can1  284   [8]  00 00 00 00 00 00 00 00
  can1  383   [2]  00 00
  can1  384   [2]  00 00
  can1  382   [2]  FC FF
  can1  381   [2]  2A 02
  can1  080   [0] 
  can1  283   [8]  F7 FF FF FF 00 00 00 00
  can1  284   [8]  00 00 00 00 00 00 00 00
  can1  281   [8]  69 07 00 00 C8 2A 02 00
  can1  282   [8]  FE FF FF FF 00 00 00 00
  can1  383   [2]  00 00
  can1  382   [2]  00 00
  can1  384   [2]  00 00
  can1  381   [2]  A2 01
  can1  0F1   [8]  0B 05 12 00 C0 00 30 FE
  can1  0F9   [8]  0B F9 56 05 E8 F5 20 00
  can1  0F2   [8]  2A 08 93 02 36 00 00 00
  can1  0FA   [8]  FD 01 67 1B 7E 00 00 00
  can1  080   [0] 
  can1  282   [8]  FE FF FF FF 00 00 00 00
  can1  283   [8]  F7 FF FF FF 00 00 00 00
  can1  281   [8]  F9 07 00 00 86 2B 02 00
  can1  284   [8]  00 00 00 00 00 00 00 00
  can1  382   [2]  00 00
  can1  384   [2]  00 00
  can1  383   [2]  FC FF
  can1  381   [2]  A6 01
  can1  080   [0] 
  can1  281   [8]  85 08 00 00 43 3B 02 00
  can1  282   [8]  FE FF FF FF 00 00 00 00
  can1  283   [8]  F7 FF FF FF 00 00 00 00
  can1  284   [8]  00 00 00 00 00 00 00 00
  can1  382   [2]  00 00
  can1  383   [2]  00 00
  can1  384   [2]  00 00
  can1  381   [2]  62 01
  can1  0F1   [8]  0B 05 1B 00 B0 00 10 FE
  can1  0F9   [8]  0B F9 5C 05 EB F4 FE 00
  can1  0F2   [8]  25 08 98 02 18 00 00 00
  can1  080   [0] 
  can1  0FA   [8]  E7 01 4C 1B 67 00 00 00
  can1  742   [1]  00
  can1  284   [8]  00 00 00 00 00 00 00 00
  can1  281   [8]  15 09 00 00 1A 25 02 00
  can1  282   [8]  FE FF FF FF 00 00 00 00
  can1  283   [8]  F7 FF FF FF 00 00 00 00
  can1  382   [2]  00 00
  can1  384   [2]  00 00
  can1  383   [2]  FC FF
  can1  381   [2]  51 02
  can1  080   [0] 
  can1  281   [8]  A1 09 00 00 2A 28 02 00
  can1  282   [8]  FE FF FF FF 00 00 00 00
  can1  283   [8]  F7 FF FF FF 00 00 00 00
  can1  284   [8]  00 00 00 00 00 00 00 00
  can1  382   [2]  00 00
  can1  384   [2]  00 00
  can1  383   [2]  FC FF
  can1  381   [2]  18 02
  can1  0F1   [8]  0B 05 0F 00 A5 FF EC FE
  can1  0F9   [8]  0B F9 70 05 E7 F5 1E 01
  can1  0F2   [8]  32 08 93 02 32 00 00 00
  can1  0FA   [8]  23 01 5F 1B 6C 00 00 00
  can1  080   [0] 
  can1  282   [8]  FE FF FF FF 00 00 00 00
  can1  281   [8]  2F 0A 00 00 6C 1E 02 00
  can1  283   [8]  F7 FF FF FF 00 00 00 00
  can1  284   [8]  00 00 00 00 00 00 00 00
  can1  382   [2]  00 00
  can1  383   [2]  00 00
  can1  384   [2]  FC FF
  can1  381   [2]  F4 01
  can1  080   [0] 
  can1  281   [8]  BE 0A 00 00 48 2C 02 00
  can1  282   [8]  FE FF FF FF 00 00 00 00
  can1  283   [8]  F7 FF FF FF 00 00 00 00
  can1  284   [8]  00 00 00 00 00 00 00 00
  can1  383   [2]  00 00
  can1  384   [2]  00 00
  can1  382   [2]  FC FF
  can1  381   [2]  CD 01
  can1  0F1   [8]  0B 04 F5 00 75 FF CF FE
  can1  0F9   [8]  0B F9 4D 05 E1 F5 20 01
  can1  0F2   [8]  21 08 9F 01 E9 00 00 00
  can1  0FA   [8]  01 01 4F 1B 78 00 00 00
  can1  080   [0] 
  can1  282   [8]  FE FF FF FF 00 00 00 00
  can1  283   [8]  F7 FF FF FF 00 00 00 00
  can1  281   [8]  4A 0B 00 00 D1 25 02 00
  can1  284   [8]  00 00 00 00 00 00 00 00
  can1  383   [2]  00 00
  can1  382   [2]  00 00
  can1  384   [2]  00 00
  can1  381   [2]  06 02
  can1  765   [1]  05
  can1  080   [0] 
  can1  281   [8]  DA 0B 00 00 F6 26 02 00
  can1  282   [8]  FE FF FF FF 00 00 00 00
  can1  283   [8]  F7 FF FF FF 00 00 00 00
  can1  284   [8]  00 00 00 00 00 00 00 00
  can1  382   [2]  00 00
  can1  383   [2]  00 00
  can1  384   [2]  FC FF
  can1  381   [2]  35 02
  can1  0F1   [8]  0B 05 1C 00 9E FF DC FE
  can1  0F9   [8]  0B F9 70 05 F6 F5 18 01
  can1  0F2   [8]  32 08 8A 02 1B 00 00 00
  can1  0FA   [8]  01 01 5B 1B 81 00 00 00
  can1  080   [0] 
  can1  282   [8]  FE FF FF FF 00 00 00 00
  can1  283   [8]  F7 FF FF FF 00 00 00 00
  can1  281   [8]  69 0C 00 00 97 30 02 00
  can1  284   [8]  00 00 00 00 00 00 00 00
  can1  382   [2]  00 00
  can1  383   [2]  00 00
  can1  384   [2]  FC FF
  can1  381   [2]  50 01
  can1  080   [0] 
  can1  281   [8]  F6 0C 00 00 F0 28 02 00
  can1  282   [8]  FE FF FF FF 00 00 00 00
  can1  283   [8]  F7 FF FF FF 00 00 00 00
  can1  284   [8]  00 00 00 00 00 00 00 00
  can1  382   [2]  00 00
  can1  383   [2]  00 00
  can1  384   [2]  FC FF
  can1  381   [2]  C2 01
  can1  0F1   [8]  0B 05 22 00 B1 FF C5 FE
  can1  0F9   [8]  0B F9 72 06 03 F5 30 00
  can1  0F2   [8]  3A 08 93 02 3E 00 00 00
  can1  0FA   [8]  F9 01 70 1B 80 00 00 00
  can1  080   [0] 
  can1  282   [8]  FE FF FF FF 00 00 00 00
  can1  283   [8]  F7 FF FF FF 00 00 00 00
  can1  281   [8]  88 0D 00 00 6A 2D 02 00
  can1  284   [8]  00 00 00 00 00 00 00 00
  can1  383   [2]  00 00
  can1  382   [2]  00 00
  can1  384   [2]  00 00
  can1  381   [2]  62 01
  can1  080   [0] 
  can1  281   [8]  0E 0E 00 00 F5 22 02 00
  can1  282   [8]  FE FF FF FF 00 00 00 00
  can1  283   [8]  F7 FF FF FF 00 00 00 00
  can1  284   [8]  00 00 00 00 00 00 00 00
  can1  382   [2]  00 00
  can1  384   [2]  00 00
  can1  383   [2]  FC FF
  can1  381   [2]  DF 01
  can1  0F1   [8]  0B 04 FD 00 6D FF C6 FE
  can1  0F9   [8]  0B F9 52 05 F4 F5 13 01
  can1  0F2   [8]  29 08 8E 01 E0 00 00 00
  can1  0FA   [8]  1A 01 4F 1B 5B 00 00 00
  can1  080   [0] 
  can1  283   [8]  F7 FF FF FF 00 00 00 00
  can1  284   [8]  00 00 00 00 00 00 00 00
  can1  281   [8]  A5 0E 00 00 CD 2E 02 00
  can1  282   [8]  FE FF FF FF 00 00 00 00
  can1  383   [2]  00 00
  can1  382   [2]  00 00
  can1  384   [2]  FC FF
  can1  381   [2]  8D 01
  can1  080   [0] 
  can1  284   [8]  00 00 00 00 00 00 00 00
  can1  281   [8]  2A 0F 00 00 D7 21 02 00
  can1  282   [8]  FE FF FF FF 00 00 00 00
  can1  283   [8]  F7 FF FF FF 00 00 00 00
  can1  382   [2]  00 00
  can1  384   [2]  00 00
  can1  383   [2]  FC FF
  can1  381   [2]  25 01
  can1  0F1   [8]  0B 04 FC 00 A2 FF D7 FE
  can1  0F9   [8]  0B F9 5E 05 E8 F5 23 01
  can1  0F2   [8]  16 08 91 02 1B 00 00 00
  can1  0FA   [8]  00 01 66 1B 85 00 00 00
  can1  080   [0] 
  can1  283   [8]  F7 FF FF FF 00 00 00 00
  can1  284   [8]  00 00 00 00 00 00 00 00
  can1  281   [8]  BB 0F 00 00 B8 25 02 00
  can1  282   [8]  FE FF FF FF 00 00 00 00
  can1  383   [2]  00 00
  can1  384   [2]  00 00
  can1  382   [2]  FC FF
  can1  381   [2]  94 01
  can1  080   [0] 
  can1  281   [8]  44 10 00 00 8B 2D 02 00
  can1  282   [8]  FE FF FF FF 00 00 00 00
  can1  283   [8]  F7 FF FF FF 00 00 00 00
  can1  284   [8]  00 00 00 00 00 00 00 00
  can1  382   [2]  00 00
  can1  383   [2]  00 00
  can1  384   [2]  04 00
  can1  381   [2]  5E 01
  can1  0F1   [8]  0B 05 13 00 96 FF B2 FE
  can1  0F9   [8]  0B F9 63 05 F9 F5 18 01
  can1  0F2   [8]  3A 08 8A 02 0B 00 00 00
  can1  0FA   [8]  03 01 57 1B 70 00 00 00
  can1  080   [0] 
  can1  283   [8]  F7 FF FF FF 00 00 00 00
  can1  284   [8]  00 00 00 00 00 00 00 00
  can1  281   [8]  D3 10 00 00 63 24 02 00
  can1  282   [8]  FE FF FF FF 00 00 00 00
  can1  383   [2]  00 00
  can1  382   [2]  00 00
  can1  384   [2]  00 00
  can1  381   [2]  11 02
  can1  080   [0] 
  can1  281   [8]  5D 11 00 00 5E 21 02 00
  can1  282   [8]  FE FF FF FF 00 00 00 00
  can1  283   [8]  F7 FF FF FF 00 00 00 00
  can1  284   [8]  00 00 00 00 00 00 00 00
  can1  382   [2]  00 00
  can1  383   [2]  00 00
  can1  384   [2]  00 00
  can1  381   [2]  D8 01
  can1  0F1   [8]  0B 05 1A 00 AE FF B0 FE
  can1  0F9   [8]  0B F9 64 05 E8 F5 16 01
  can1  0F2   [8]  3B 08 79 02 3D 00 00 00
  can1  0FA   [8]  01 01 5A 1B 8C 00 00 00
  can1  080   [0] 
  can1  283   [8]  F7 FF FF FF 00 00 00 00
  can1  284   [8]  00 00 00 00 00 00 00 00
  can1  281   [8]  EB 11 00 00 DD 13 02 00
  can1  282   [8]  FE FF FF FF 00 00 00 00
  can1  383   [2]  00 00
  can1  382   [2]  00 00
  can1  384   [2]  00 00
  can1  381   [2]  74 01
  can1  080   [0] 
  can1  281   [8]  75 12 00 00 F8 2A 02 00
  can1  282   [8]  FE FF FF FF 00 00 00 00
  can1  283   [8]  F7 FF FF FF 00 00 00 00
  can1  284   [8]  00 00 00 00 00 00 00 00
  can1  382   [2]  00 00
  can1  383   [2]  00 00
  can1  384   [2]  04 00
  can1  381   [2]  57 01
  can1  0F1   [8]  0B 05 00 00 AB FF D8 FE
  can1  0F9   [8]  0B F9 57 05 EC F5 0B 00
  can1  0F2   [8]  38 08 A5 02 13 00 00 00
  can1  0FA   [8]  F2 01 5A 1B 7B 00 00 00
  can1  080   [0] 
  can1  283   [8]  F7 FF FF FF 00 00 00 00
  can1  284   [8]  00 00 00 00 00 00 00 00
  can1  281   [8]  06 13 00 00 57 2B 02 00
  can1  282   [8]  FE FF FF FF 00 00 00 00
  can1  384   [2]  00 00
  can1  383   [2]  00 00
  can1  382   [2]  FC FF
  can1  381   [2]  3A 01
  can1  080   [0] 
  can1  281   [8]  8B 13 00 00 91 2B 02 00
  can1  282   [8]  FE FF FF FF 00 00 00 00
  can1  283   [8]  F7 FF FF FF 00 00 00 00
  can1  284   [8]  00 00 00 00 00 00 00 00
  can1  382   [2]  00 00
  can1  383   [2]  00 00
  can1  384   [2]  FC FF
  can1  381   [2]  D1 01
  can1  0F1   [8]  0B 04 E7 00 7C FF CF FE
  can1  0F9   [8]  0B F9 5B 05 FB F5 1E 01
  can1  0F2   [8]  2D 08 92 02 0B 00 00 00
  can1  0FA   [8]  10 01 5F 1B 6C 00 00 00
  can1  080   [0] 
  can1  283   [8]  F7 FF FF FF 00 00 00 00
  can1  284   [8]  00 00 00 00 00 00 00 00
  can1  281   [8]  1D 14 00 00 56 1D 02 00
  can1  282   [8]  FE FF FF FF 00 00 00 00
  can1  383   [2]  00 00
  can1  382   [2]  00 00
  can1  384   [2]  FC FF
  can1  381   [2]  0D 02
  can1  080   [0] 
  can1  281   [8]  A5 14 00 00 2C 1A 02 00
  can1  282   [8]  FE FF FF FF 00 00 00 00
  can1  283   [8]  F7 FF FF FF 00 00 00 00
  can1  284   [8]  00 00 00 00 00 00 00 00
  can1  382   [2]  00 00
  can1  383   [2]  00 00
  can1  384   [2]  04 00
  can1  381   [2]  86 01
  can1  0F1   [8]  0B 05 12 00 A9 FF EF FE
  can1  0F9   [8]  0B F9 61 05 E9 F5 18 00
  can1  0F2   [8]  34 08 96 02 2B 00 00 00
  can1  0FA   [8]  EB 01 64 1B 93 00 00 00
  can1  080   [0] 
  can1  284   [8]  00 00 00 00 00 00 00 00
  can1  282   [8]  FE FF FF FF 00 00 00 00
  can1  281   [8]  35 15 00 00 5D 28 02 00
  can1  283   [8]  F7 FF FF FF 00 00 00 00
  can1  383   [2]  00 00
  can1  382   [2]  00 00
  can1  384   [2]  FC FF
  can1  381   [2]  3A 01
  can1  080   [0] 
  can1  282   [8]  FE FF FF FF 00 00 00 00
  can1  281   [8]  BC 15 00 00 90 27 02 00
  can1  283   [8]  F7 FF FF FF 00 00 00 00
  can1  284   [8]  00 00 00 00 00 00 00 00
  can1  382   [2]  00 00
  can1  383   [2]  00 00
  can1  384   [2]  00 00
  can1  381   [2]  82 01
  can1  0F1   [8]  0B 05 0E 00 B0 FF F7 FE
  can1  0F9   [8]  0B F9 5F 05 CB F5 1E 01
  can1  0F2   [8]  28 08 9B 02 0C 00 00 00
  can1  0FA   [8]  03 01 6C 1B 6F 00 00 00
  can1  080   [0] 
  can1  284   [8]  00 00 00 00 00 00 00 00
  can1  281   [8]  4B 16 00 00 1E 27 02 00
  can1  282   [8]  FE FF FF FF 00 00 00 00
  can1  283   [8]  F7 FF FF FF 00 00 00 00
  can1  382   [2]  00 00
  can1  384   [2]  FC FF
  can1  383   [2]  FC FF
  can1  381   [2]  B8 01
  can1  080   [0] 
  can1  282   [8]  FE FF FF FF 00 00 00 00
  can1  281   [8]  D1 16 00 00 F7 1F 02 00
  can1  283   [8]  F7 FF FF FF 00 00 00 00
  can1  284   [8]  00 00 00 00 00 00 00 00
  can1  382   [2]  00 00
  can1  383   [2]  00 00
  can1  384   [2]  FC FF
  can1  381   [2]  51 02
  can1  0F1   [8]  0B 05 08 00 B7 FF FF FE
  can1  0F9   [8]  0B F9 54 05 E5 F5 16 01
  can1  0F2   [8]  35 08 86 02 27 00 00 00
  can1  0FA   [8]  00 01 5E 1B 78 00 00 00
  can1  080   [0] 
  can1  284   [8]  00 00 00 00 00 00 00 00
  can1  281   [8]  63 17 00 00 1D 0D 02 00
  can1  282   [8]  FE FF FF FF 00 00 00 00
  can1  283   [8]  F7 FF FF FF 00 00 00 00
  can1  383   [2]  00 00
  can1  382   [2]  00 00
  can1  384   [2]  00 00
  can1  381   [2]  03 02
  can1  080   [0] 
  can1  282   [8]  FE FF FF FF 00 00 00 00
  can1  283   [8]  F7 FF FF FF 00 00 00 00
  can1  281   [8]  E6 17 00 00 A3 20 02 00
  can1  284   [8]  00 00 00 00 00 00 00 00
  can1  384   [2]  00 00
  can1  382   [2]  00 00
  can1  383   [2]  FC FF
  can1  381   [2]  7B 01
  can1  0F1   [8]  0B 05 19 00 A9 00 00 FE
  can1  0F9   [8]  0B F9 56 05 DE F5 1B 00
  can1  0F2   [8]  2F 08 7B 02 17 00 00 00
  can1  0FA   [8]  F9 01 4B 1B 90 00 00 00
  can1  080   [0] 
  can1  284   [8]  00 00 00 00 00 00 00 00
  can1  281   [8]  7B 18 00 00 CF 2A 02 00
  can1  282   [8]  FE FF FF FF 00 00 00 00
  can1  283   [8]  F7 FF FF FF 00 00 00 00
  can1  383   [2]  00 00
  can1  384   [2]  00 00
  can1  382   [2]  FC FF
  can1  381   [2]  45 01
  can1  080   [0] 