  can1  765   [1]  05
  can1  742   [1]  00
  can1  765   [1]  05
  can1  742   [1]  00
  can1  765   [1]  05
  can1  742   [1]  00
  can1  765   [1]  05
  can1  742   [1]  00
  can1  765   [1]  05
  can1  742   [1]  00
  can1  765   [1]  05
  can1  742   [1]  00
  can1  765   [1]  05
  can1  742   [1]  00
  can1  765   [1]  05
  can1  742   [1]  00
  can1  601   [8]  23 00 18 01 81 01 00 80
  can1  581   [8]  60 00 18 01 00 00 00 00
  can1  764   [1]  00
  can1  211   [1]  11
  can1  212   [1]  00
  can1  201   [2]  00 00
  can1  301   [4]  00 00 00 00
  can1  401   [4]  00 00 00 00
  can1  501   [2]  00 00
  can1  202   [2]  00 00
  can1  302   [4]  00 00 00 00
  can1  402   [4]  00 00 00 00
  can1  502   [2]  00 00
  can1  203   [2]  00 00
  can1  303   [4]  00 00 00 00
  can1  403   [4]  00 00 00 00
  can1  503   [2]  00 00
  can1  204   [2]  00 00
  can1  304   [4]  00 00 00 00
  can1  404   [4]  00 00 00 00
  can1  504   [2]  00 00
  can1  0F8   [8]  0B 00 00 00 00 08 02 00
  can1  0F0   [8]  0B 00 00 00 00 08 02 00
  can1  080   [0] 
  can1  601   [8]  2F 00 1A 00 00 00 00 00
  can1  581   [8]  60 00 1A 00 00 00 00 00
  can1  0F1   [8]  0B 05 11 00 C1 FF EA FE
  can1  0F9   [8]  0B F9 62 05 F2 F5 3D 00
  can1  0F2   [8]  20 08 89 02 4E 00 00 00
  can1  0FA   [8]  F0 01 7A 1B 8B 00 00 00
  can1  080   [0] 
  can1  601   [8]  2F 00 18 02 FF 00 00 00
  can1  581   [8]  60 00 18 02 00 00 00 00
  can1  080   [0] 
  can1  601   [8]  23 00 1A 01 10 00 41 60
  can1  581   [8]  60 00 1A 01 00 00 00 00
  can1  0F1   [8]  0B 05 02 00 9A FF FF FE
  can1  0F9   [8]  0B F9 6B 05 F6 F5 30 01
  can1  0F2   [8]  33 08 AC 02 23 00 00 00
  can1  0FA   [8]  01 01 74 1B 7A 00 00 00
  can1  080   [0] 
  can1  601   [8]  2F 00 1A 00 01 00 00 00
  can1  581   [8]  60 00 1A 00 00 00 00 00
  can1  080   [0] 
  can1  601   [8]  23 00 18 01 81 01 00 00
  can1  581   [8]  60 00 18 01 00 00 00 00
  can1  0F1   [8]  0B 05 0D 00 9B FF EE FE
  can1  0F9   [8]  0B F9 4E 05 E2 F5 11 00
  can1  0F2   [8]  22 08 8A 02 2E 00 00 00
  can1  0FA   [8]  FE 01 5C 1B 64 00 00 00
  can1  080   [0] 
  can1  581   [8]  60 01 18 01 00 00 00 00
  can1  601   [8]  23 01 18 01 81 02 00 80
  can1  080   [0] 
  can1  601   [8]  2F 01 1A 00 00 00 00 00
  can1  581   [8]  60 01 1A 00 00 00 00 00
  can1  0F1   [8]  0B 05 18 00 96 FF FC FE
  can1  0F9   [8]  0B F9 57 05 ED F5 3D 00
  can1  0F2   [8]  3C 08 8D 02 13 00 00 00
  can1  0FA   [8]  F1 01 57 1B 71 00 00 00
  can1  080   [0] 
  can1  601   [8]  2F 01 18 02 01 00 00 00
  can1  581   [8]  60 01 18 02 00 00 00 00
  can1  080   [0] 
  can1  601   [8]  23 01 1A 01 20 00 64 60
  can1  581   [8]  60 01 1A 01 00 00 00 00
  can1  0F1   [8]  0B 05 01 00 9A FF F1 FE
  can1  0F9   [8]  0B F9 54 05 F8 F5 13 00
  can1  0F2   [8]  2F 08 93 02 2E 00 00 00
  can1  0FA   [8]  FA 01 5F 1B 81 00 00 00
  can1  080   [0] 
  can1  601   [8]  23 01 1A 02 20 00 6C 60
  can1  581   [8]  60 01 1A 02 00 00 00 00
  can1  080   [0] 
  can1  0F1   [8]  0B 05 15 00 B1 FF FC FE
  can1  0F9   [8]  0B F9 54 05 E4 F5 28 01
  can1  0F2   [8]  1F 08 86 02 27 00 00 00
  can1  0FA   [8]  04 01 5F 1B 82 00 00 00
  can1  080   [0] 
  can1  601   [8]  2F 01 1A 00 02 00 00 00
  can1  581   [8]  60 01 1A 00 00 00 00 00
  can1  080   [0] 
  can1  601   [8]  23 01 18 01 81 02 00 00
  can1  581   [8]  60 01 18 01 00 00 00 00
  can1  0F1   [8]  0B 05 0E 00 AA FF EF FE
  can1  0F9   [8]  0B F9 65 05 EF F5 1E 00
  can1  0F2   [8]  2C 08 A0 02 2E 00 00 00
  can1  0FA   [8]  FA 01 63 1B 81 00 00 00
  can1  080   [0] 
  can1  601   [8]  23 02 18 01 81 03 00 80
  can1  581   [8]  60 02 18 01 00 00 00 00
  can1  080   [0] 
  can1  601   [8]  2F 02 1A 00 00 00 00 00
  can1  581   [8]  60 02 1A 00 00 00 00 00
  can1  0F1   [8]  0B 05 0B 00 A5 FF DA FE
  can1  0F9   [8]  0B F9 4E 05 E0 F5 14 01
  can1  0F2   [8]  37 08 8E 02 2A 00 00 00
  can1  0FA   [8]  14 01 5D 1B 6D 00 00 00
  can1  080   [0] 
  can1  601   [8]  2F 02 18 02 01 00 00 00
  can1  581   [8]  60 02 18 02 00 00 00 00
  can1  080   [0] 
  can1  601   [8]  23 02 1A 01 10 00 77 60
  can1  581   [8]  60 02 1A 01 00 00 00 00
  can1  0F1   [8]  0B 04 F4 00 9A FF F4 FE
  can1  0F9   [8]  0B F9 5D 05 EF F5 20 01
  can1  0F2   [8]  29 08 9B 02 23 00 00 00
  can1  0FA   [8]  02 01 52 1B 66 00 00 00
  can1  080   [0] 
  can1  601   [8]  2F 02 1A 00 01 00 00 00
  can1  581   [8]  60 02 1A 00 00 00 00 00
  can1  080   [0] 
  can1  601   [8]  23 02 18 01 81 03 00 00
  can1  581   [8]  60 02 18 01 00 00 00 00
  can1  0F1   [8]  0B 04 FE 00 96 FF F6 FE
  can1  0F9   [8]  0B F9 6C 05 DC F5 1E 01
  can1  0F2   [8]  28 08 84 02 08 00 00 00
  can1  0FA   [8]  02 01 64 1B 75 00 00 00
  can1  080   [0] 
  can1  765   [1]  05
  can1  601   [8]  23 00 14 01 01 02 00 80
  can1  581   [8]  60 00 14 01 00 00 00 00
  can1  080   [0] 
  can1  581   [8]  60 00 16 00 00 00 00 00
  can1  601   [8]  2F 00 16 00 00 00 00 00
  can1  0F1   [8]  0B 05 11 00 A2 FF EC FE
  can1  0F9   [8]  0B F9 5B 05 F7 F5 10 00
  can1  0F2   [8]  22 08 85 02 1F 00 00 00
  can1  0FA   [8]  F3 01 6A 1B 6D 00 00 00
  can1  080   [0] 
  can1  601   [8]  2F 00 14 02 FF 00 00 00
  can1  581   [8]  60 00 14 02 00 00 00 00
  can1  080   [0] 
  can1  0F1   [8]  0B 05 0B 00 9D 00 00 FE
  can1  0F9   [8]  0B F9 55 05 F9 F5 11 01
  can1  0F2   [8]  1D 08 90 02 14 00 00 00
  can1  0FA   [8]  1B 01 77 1B 84 00 00 00
  can1  080   [0] 
  can1  601   [8]  23 00 16 01 10 00 40 60
  can1  581   [8]  60 00 16 01 00 00 00 00
  can1  080   [0] 
  can1  601   [8]  2F 00 16 00 01 00 00 00
  can1  581   [8]  60 00 16 00 00 00 00 00
  can1  0F1   [8]  0B 05 0E 00 A9 00 00 FE
  can1  0F9   [8]  0B F9 62 05 DE F5 11 01
  can1  0F2   [8]  23 08 9B 02 18 00 00 00
  can1  0FA   [8]  04 01 55 1B 7B 00 00 00
  can1  080   [0] 
  can1  601   [8]  23 00 14 01 01 02 00 00
  can1  581   [8]  60 00 14 01 00 00 00 00
  can1  080   [0] 
  can1  601   [8]  23 01 14 01 01 03 00 80
  can1  581   [8]  60 01 14 01 00 00 00 00
  can1  0F1   [8]  0B 05 19 00 9B FF E9 FE
  can1  0F9   [8]  0B F9 61 05 EE F5 1B 01
  can1  0F2   [8]  3B 08 8F 02 5C 00 00 00
  can1  0FA   [8]  08 01 63 1B 7E 00 00 00
  can1  080   [0] 
  can1  601   [8]  2F 01 16 00 00 00 00 00
  can1  581   [8]  60 01 16 00 00 00 00 00
  can1  080   [0] 
  can1  601   [8]  2F 01 14 02 FF 00 00 00
  can1  581   [8]  60 01 14 02 00 00 00 00
  can1  0F1   [8]  0B 05 19 00 AD FF FC FE
  can1  0F9   [8]  0B F9 66 05 DB F5 28 01
  can1  0F2   [8]  29 08 A7 02 36 00 00 00
  can1  0FA   [8]  01 01 7A 1B 82 00 00 00
  can1  080   [0] 
  can1  601   [8]  23 01 16 01 20 00 7A 60
  can1  581   [8]  60 01 16 01 00 00 00 00
  can1  080   [0] 
  can1  601   [8]  2F 01 16 00 01 00 00 00
  can1  581   [8]  60 01 16 00 00 00 00 00
  can1  0F1   [8]  0B 05 16 00 AD 00 05 FE
  can1  0F9   [8]  0B F9 6E 05 E6 F5 20 00
  can1  0F2   [8]  27 08 80 02 2B 00 00 00
  can1  0FA   [8]  EF 01 66 1B 9A 00 00 00
  can1  080   [0] 
  can1  601   [8]  23 01 14 01 01 03 00 00
  can1  581   [8]  60 01 14 01 00 00 00 00
  can1  080   [0] 
  can1  601   [8]  23 02 14 01 01 04 00 80
  can1  581   [8]  60 02 14 01 00 00 00 00
  can1  0F1   [8]  0B 05 03 00 A5 FF EF FE
  can1  0F9   [8]  0B F9 67 05 EC F5 20 00
  can1  0F2   [8]  29 08 90 02 1B 00 00 00
  can1  080   [0] 
  can1  0FA   [8]  F7 01 66 1B 88 00 00 00
  can1  601   [8]  2F 02 16 00 00 00 00 00
  can1  581   [8]  60 02 16 00 00 00 00 00
  can1  080   [0] 
  can1  0F1   [8]  0B 05 11 00 9A FF F1 FE
  can1  0F9   [8]  0B F9 61 05 EE F4 FF 01
  can1  0F2   [8]  28 08 91 02 13 00 00 00
  can1  0FA   [8]  07 01 5F 1B 92 00 00 00
  can1  080   [0] 
  can1  601   [8]  2F 02 14 02 FF 00 00 00
  can1  581   [8]  60 02 14 02 00 00 00 00
  can1  080   [0] 
  can1  601   [8]  23 02 16 01 20 00 FF 60
  can1  581   [8]  60 02 16 01 00 00 00 00
  can1  0F1   [8]  0B 05 05 00 AD 00 01 FE
  can1  0F9   [8]  0B F9 64 05 FE F5 1B 01
  can1  0F2   [8]  23 08 A3 02 1B 00 00 00
  can1  0FA   [8]  0D 01 5C 1B 83 00 00 00
  can1  080   [0] 
  can1  601   [8]  2F 02 16 00 01 00 00 00
  can1  581   [8]  60 02 16 00 00 00 00 00
  can1  764   [1]  05
  can1  080   [0] 
  can1  581   [8]  60 02 14 01 00 00 00 00
  can1  601   [8]  23 02 14 01 01 04 00 00
  can1  0F1   [8]  0B 05 0E 00 BB FF F4 FE
  can1  0F9   [8]  0B F9 63 05 D8 F5 26 00
  can1  0F2   [8]  2F 08 83 02 3E 00 00 00
  can1  0FA   [8]  FF 01 6D 1B 67 00 00 00
  can1  080   [0] 
  can1  601   [8]  23 03 14 01 01 05 00 80
  can1  581   [8]  60 03 14 01 00 00 00 00
  can1  080   [0] 
  can1  601   [8]  2F 03 16 00 00 00 00 00
  can1  581   [8]  60 03 16 00 00 00 00 00
  can1  0F1   [8]  0B 05 0B 00 A4 FF E9 FE
  can1  0F9   [8]  0B F9 51 05 F4 F5 0E 01
  can1  0F2   [8]  16 08 80 02 51 00 00 00
  can1  0FA   [8]  19 01 4B 1B 70 00 00 00
  can1  080   [0] 
  can1  601   [8]  2F 03 14 02 FF 00 00 00
  can1  581   [8]  60 03 14 02 00 00 00 00
  can1  080   [0] 
  can1  601   [8]  23 03 16 01 10 00 71 60
  can1  581   [8]  60 03 16 01 00 00 00 00
  can1  0F1   [8]  0B 05 09 00 9B FF F4 FE
  can1  0F9   [8]  0B F9 50 05 F1 F5 0B 01
  can1  0F2   [8]  1F 08 8D 02 26 00 00 00
  can1  0FA   [8]  0C 01 5A 1B 74 00 00 00
  can1  080   [0] 
  can1  601   [8]  2F 03 16 00 01 00 00 00
  can1  581   [8]  60 03 16 00 00 00 00 00
  can1  080   [0] 
  can1  601   [8]  23 03 14 01 01 05 00 00
  can1  581   [8]  60 03 14 01 00 00 00 00
  can1  0F1   [8]  0B 05 02 00 79 FF F1 FE
  can1  0F2   [8]  22 08 8E 02 04 00 00 00
  can1  0F9   [8]  0B F9 54 05 E9 F5 11 01
  can1  0FA   [8]  18 01 58 1B 77 00 00 00
  can1  080   [0] 
  can1  080   [0] 
  can1  602   [8]  23 00 18 01 82 01 00 80
  can1  582   [8]  60 00 18 01 00 00 00 00
  can1  0F1   [8]  0B 05 02 00 98 00 02 FE
  can1  0F2   [8]  08 08 83 02 10 00 00 00
  can1  0F9   [8]  0B F9 41 05 EA F5 16 01
  can1  0FA   [8]  0E 01 5E 1B 71 00 00 00
  can1  080   [0] 
  can1  602   [8]  2F 00 1A 00 00 00 00 00
  can1  582   [8]  60 00 1A 00 00 00 00 00
  can1  080   [0] 
  can1  602   [8]  2F 00 18 02 FF 00 00 00
  can1  582   [8]  60 00 18 02 00 00 00 00
  can1  0F1   [8]  0B 05 0F 00 9F FF F2 FE
  can1  0F9   [8]  0B F9 65 05 EF F5 1B 01
  can1  0F2   [8]  33 08 9A 02 3E 00 00 00
  can1  0FA   [8]  02 01 65 1B 81 00 00 00
  can1  080   [0] 
  can1  602   [8]  23 00 1A 01 10 00 41 60
  can1  582   [8]  60 00 1A 01 00 00 00 00
  can1  080   [0] 
  can1  582   [8]  60 00 1A 00 00 00 00 00
  can1  602   [8]  2F 00 1A 00 01 00 00 00
  can1  0F1   [8]  0B 05 01 00 A2 FF EF FE
  can1  0F9   [8]  0B F9 5F 05 ED F5 06 01
  can1  0F2   [8]  1A 08 9C 02 17 00 00 00
  can1  0FA   [8]  13 01 43 1B 88 00 00 00
  can1  080   [0] 
  can1  602   [8]  23 00 18 01 82 01 00 00
  can1  582   [8]  60 00 18 01 00 00 00 00
  can1  080   [0] 
  can1  602   [8]  23 01 18 01 82 02 00 80
  can1  582   [8]  60 01 18 01 00 00 00 00
  can1  0F1   [8]  0B 05 08 00 AD FF F9 FE
  can1  0F9   [8]  0B F9 60 05 EC F5 26 01
  can1  0F2   [8]  12 08 9C 02 18 00 00 00
  can1  0FA   [8]  00 01 62 1B 6D 00 00 00
  can1  080   [0] 
  can1  582   [8]  60 01 1A 00 00 00 00 00
  can1  602   [8]  2F 01 1A 00 00 00 00 00
  can1  080   [0] 
  can1  602   [8]  2F 01 18 02 01 00 00 00
  can1  582   [8]  60 01 18 02 00 00 00 00
  can1  0F1   [8]  0B 05 04 00 9A FF EC FE
  can1  0F2   [8]  34 08 81 02 1E 00 00 00
  can1  0F9   [8]  0B F9 52 05 ED F5 1E 01
  can1  0FA   [8]  17 01 52 1B 7A 00 00 00
  can1  080   [0] 
  can1  602   [8]  23 01 1A 01 20 00 64 60
  can1  582   [8]  60 01 1A 01 00 00 00 00
  can1  080   [0] 
  can1  602   [8]  23 01 1A 02 20 00 6C 60
  can1  582   [8]  60 01 1A 02 00 00 00 00
  can1  0F1   [8]  0B 05 12 00 98 FF E6 FE
  can1  0F9   [8]  0B F9 56 05 ED F5 13 01
  can1  0F2   [8]  1F 08 76 02 2E 00 00 00
  can1  0FA   [8]  0A 01 5F 1B 7E 00 00 00
  can1  080   [0] 
  can1  602   [8]  2F 01 1A 00 02 00 00 00
  can1  582   [8]  60 01 1A 00 00 00 00 00
  can1  080   [0] 
  can1  0F1   [8]  0B 05 03 00 A2 FF E6 FE
  can1  0F9   [8]  0B F9 68 06 01 F5 15 00
  can1  0F2   [8]  1B 08 7C 02 36 00 00 00
  can1  0FA   [8]  F2 01 60 1B 69 00 00 00
  can1  080   [0] 
  can1  602   [8]  23 01 18 01 82 02 00 00
  can1  582   [8]  60 01 18 01 00 00 00 00
  can1  080   [0] 
  can1  602   [8]  23 02 18 01 82 03 00 80
  can1  582   [8]  60 02 18 01 00 00 00 00
  can1  0F1   [8]  0B 05 17 00 A3 FF F3 FE
  can1  0F9   [8]  0B F9 71 05 F1 F5 18 00
  can1  0F2   [8]  2D 08 6D 02 45 00 00 00
  can1  0FA   [8]  F1 01 65 1B 77 00 00 00
  can1  080   [0] 
  can1  602   [8]  2F 02 1A 00 00 00 00 00
  can1  582   [8]  60 02 1A 00 00 00 00 00
  can1  080   [0] 
  can1  602   [8]  2F 02 18 02 01 00 00 00
  can1  582   [8]  60 02 18 02 00 00 00 00
  can1  0F1   [8]  0B 04 F8 00 B2 FF ED FE
  can1  0F2   [8]  37 08 AA 02 10 00 00 00
  can1  0F9   [8]  0B F9 61 05 FB F5 11 01
  can1  0FA   [8]  15 01 57 1B 7D 00 00 00
  can1  080   [0] 
  can1  602   [8]  23 02 1A 01 10 00 77 60
  can1  582   [8]  60 02 1A 01 00 00 00 00
  can1  080   [0] 
  can1  602   [8]  2F 02 1A 00 01 00 00 00
  can1  582   [8]  60 02 1A 00 00 00 00 00
  can1  0F1   [8]  0B 04 FD 00 A1 FF F4 FE
  can1  0F9   [8]  0B F9 57 05 EE F5 13 01
  can1  0F2   [8]  20 08 90 02 0F 00 00 00
  can1  0FA   [8]  05 01 72 1B 7E 00 00 00
  can1  080   [0] 
  can1  582   [8]  60 02 18 01 00 00 00 00
  can1  602   [8]  23 02 18 01 82 03 00 00
  can1  080   [0] 
  can1  602   [8]  23 00 14 01 02 02 00 80
  can1  582   [8]  60 00 14 01 00 00 00 00
  can1  0F1   [8]  0B 04 F4 00 84 FF F6 FE
  can1  0F2   [8]  27 08 98 02 0C 00 00 00
  can1  0F9   [8]  0B F9 6E 05 DA F5 02 01
  can1  0FA   [8]  1B 01 51 1B 82 00 00 00
  can1  080   [0] 
  can1  602   [8]  2F 00 16 00 00 00 00 00
  can1  582   [8]  60 00 16 00 00 00 00 00
  can1  080   [0] 
  can1  602   [8]  2F 00 14 02 FF 00 00 00
  can1  582   [8]  60 00 14 02 00 00 00 00
  can1  0F1   [8]  0B 05 15 00 C4 FF EC FE
  can1  0F2   [8]  1C 08 6F 02 36 00 00 00
  can1  0F9   [8]  0B F9 54 05 DD F5 32 00
  can1  0FA   [8]  E8 01 7C 1B 72 00 00 00
  can1  080   [0] 
  can1  602   [8]  23 00 16 01 10 00 40 60
  can1  582   [8]  60 00 16 01 00 00 00 00
  can1  080   [0] 
  can1  0F1   [8]  0B 05 18 00 9A FF EE FE
  can1  0F2   [8]  1F 08 75 02 0C 00 00 00
  can1  0F9   [8]  0B F9 5A 05 EE F5 28 00
  can1  0FA   [8]  FF 01 60 1B 96 00 00 00
  can1  080   [0] 
  can1  602   [8]  2F 00 16 00 01 00 00 00
  can1  582   [8]  60 00 16 00 00 00 00 00
  can1  080   [0] 
  can1  602   [8]  23 00 14 01 02 02 00 00
  can1  582   [8]  60 00 14 01 00 00 00 00
  can1  0F1   [8]  0B 05 0E 00 A7 FF EA FE
  can1  0F2   [8]  26 08 8D 02 3E 00 00 00
  can1  0F9   [8]  0B F9 55 05 EE F5 33 01
  can1  0FA   [8]  13 01 50 1B 73 00 00 00
  can1  080   [0] 
  can1  602   [8]  23 01 14 01 02 03 00 80
  can1  582   [8]  60 01 14 01 00 00 00 00
  can1  080   [0] 
  can1  602   [8]  2F 01 16 00 00 00 00 00
  can1  582   [8]  60 01 16 00 00 00 00 00
  can1  0F1   [8]  0B 05 0D 00 9F FF F1 FE
  can1  0F2   [8]  27 08 7F 02 3E 00 00 00
  can1  0F9   [8]  0B F9 67 05 D5 F5 29 01
  can1  0FA   [8]  02 01 55 1B 7C 00 00 00
  can1  080   [0] 
  can1  602   [8]  2F 01 14 02 FF 00 00 00
  can1  582   [8]  60 01 14 02 00 00 00 00
  can1  080   [0] 
  can1  602   [8]  23 01 16 01 20 00 7A 60
  can1  582   [8]  60 01 16 01 00 00 00 00
  can1  0F1   [8]  0B 05 1A 00 A0 00 00 FE
  can1  0F9   [8]  0B F9 4F 05 ED F5 2D 00
  can1  0F2   [8]  0A 08 73 02 1B 00 00 00
  can1  0FA   [8]  ED 01 4E 1B 6A 00 00 00
  can1  080   [0] 
  can1  602   [8]  2F 01 16 00 01 00 00 00
  can1  582   [8]  60 01 16 00 00 00 00 00
  can1  080   [0] 
  can1  602   [8]  23 01 14 01 02 03 00 00
  can1  582   [8]  60 01 14 01 00 00 00 00
  can1  0F1   [8]  0B 05 19 00 9E FF E6 FE
  can1  0F2   [8]  39 08 73 02 26 00 00 00
  can1  0F9   [8]  0B F9 4E 05 F0 F5 13 01
  can1  0FA   [8]  13 01 70 1B 8E 00 00 00
  can1  080   [0] 
  can1  582   [8]  60 02 14 01 00 00 00 00
  can1  602   [8]  23 02 14 01 02 04 00 80
  can1  080   [0] 
  can1  602   [8]  2F 02 16 00 00 00 00 00
  can1  582   [8]  60 02 16 00 00 00 00 00
  can1  0F1   [8]  0B 05 0D 00 A4 FF F1 FE
  can1  0F9   [8]  0B F9 59 05 D5 F5 1E 01
  can1  0F2   [8]  25 08 8D 02 45 00 00 00
  can1  080   [0] 
  can1  0FA   [8]  08 01 60 1B 6E 00 00 00
  can1  602   [8]  2F 02 14 02 FF 00 00 00
  can1  582   [8]  60 02 14 02 00 00 00 00
  can1  080   [0] 
  can1  0F1   [8]  0B 05 03 00 88 FF EB FE
  can1  0F9   [8]  0B F9 54 05 E7 F5 19 01
  can1  0F2   [8]  26 08 91 02 04 00 00 00
  can1  0FA   [8]  05 01 77 1B 85 00 00 00
  can1  080   [0] 
  can1  602   [8]  23 02 16 01 20 00 FF 60
  can1  582   [8]  60 02 16 01 00 00 00 00
  can1  080   [0] 
  can1  602   [8]  2F 02 16 00 01 00 00 00
  can1  582   [8]  60 02 16 00 00 00 00 00
  can1  0F1   [8]  0B 05 10 00 C0 FF DD FE
  can1  0F9   [8]  0B F9 63 05 F0 F5 13 00
  can1  0F2   [8]  1D 08 82 02 4D 00 00 00
  can1  0FA   [8]  F7 01 7B 1B 5F 00 00 00
  can1  080   [0] 
  can1  602   [8]  23 02 14 01 02 04 00 00
  can1  582   [8]  60 02 14 01 00 00 00 00
  can1  080   [0] 
  can1  582   [8]  60 03 14 01 00 00 00 00
  can1  602   [8]  23 03 14 01 02 05 00 80
  can1  0F1   [8]  0B 05 0F 00 B6 FF E2 FE
  can1  0F9   [8]  0B F9 69 05 DF F5 0C 00
  can1  0F2   [8]  24 08 88 02 4A 00 00 00
  can1  0FA   [8]  FC 01 52 1B 82 00 00 00
  can1  080   [0] 
  can1  602   [8]  2F 03 16 00 00 00 00 00
  can1  582   [8]  60 03 16 00 00 00 00 00
  can1  080   [0] 
  can1  602   [8]  2F 03 14 02 FF 00 00 00
  can1  582   [8]  60 03 14 02 00 00 00 00
  can1  0F1   [8]  0B 05 0C 00 95 FF F1 FE
  can1  0F9   [8]  0B F9 6A 05 DE F5 11 01
  can1  0F2   [8]  17 08 84 02 23 00 00 00
  can1  0FA   [8]  11 01 67 1B 82 00 00 00
  can1  080   [0] 
  can1  582   [8]  60 03 16 01 00 00 00 00
  can1  602   [8]  23 03 16 01 10 00 71 60
  can1  080   [0] 
  can1  602   [8]  2F 03 16 00 01 00 00 00
  can1  582   [8]  60 03 16 00 00 00 00 00
  can1  0F1   [8]  0B 05 0F 00 A1 FF F1 FE
  can1  0F9   [8]  0B F9 6F 05 E5 F4 FF 01
  can1  0F2   [8]  35 08 74 02 13 00 00 00
  can1  0FA   [8]  13 01 70 1B 66 00 00 00
  can1  080   [0] 
  can1  602   [8]  23 03 14 01 02 05 00 00
  can1  582   [8]  60 03 14 01 00 00 00 00
  can1  080   [0] 
  can1  603   [8]  23 00 18 01 83 01 00 80
  can1  583   [8]  60 00 18 01 00 00 00 00
  can1  0F1   [8]  0B 04 F3 00 A2 FF DF FE
  can1  0F9   [8]  0B F9 5F 05 F5 F5 13 01
  can1  0F2   [8]  1F 08 84 02 0C 00 00 00
  can1  0FA   [8]  05 01 40 1B 88 00 00 00
  can1  080   [0] 
  can1  603   [8]  2F 00 1A 00 00 00 00 00
  can1  583   [8]  60 00 1A 00 00 00 00 00
  can1  080   [0] 
  can1  742   [1]  00
  can1  0F1   [8]  0B 05 04 00 AF FF DF FE
  can1  0F9   [8]  0B F9 7A 05 E2 F5 1B 01
  can1  0F2   [8]  2E 08 82 02 1F 00 00 00
  can1  080   [0] 
  can1  0FA   [8]  0F 01 4F 1B 6D 00 00 00
  can1  603   [8]  2F 00 18 02 FF 00 00 00
  can1  583   [8]  60 00 18 02 00 00 00 00
  can1  080   [0] 
  can1  603   [8]  23 00 1A 01 10 00 41 60
  can1  583   [8]  60 00 1A 01 00 00 00 00
  can1  0F1   [8]  0B 05 04 00 A8 FF E9 FE
  can1  0F9   [8]  0B F9 5D 05 F9 F5 28 01
  can1  0F2   [8]  2F 08 80 02 1F 00 00 00
  can1  0FA   [8]  0B 01 68 1B 69 00 00 00
  can1  080   [0] 
  can1  603   [8]  2F 00 1A 00 01 00 00 00
  can1  583   [8]  60 00 1A 00 00 00 00 00
  can1  080   [0] 
  can1  603   [8]  23 00 18 01 83 01 00 00
  can1  583   [8]  60 00 18 01 00 00 00 00
  can1  0F1   [8]  0B 04 F4 00 76 00 02 FE
  can1  0F9   [8]  0B F9 43 05 EE F5 2D 00
  can1  0F2   [8]  0A 08 90 01 DD 00 00 00
  can1  0FA   [8]  FD 01 5D 1B 82 00 00 00
  can1  080   [0] 
  can1  603   [8]  23 01 18 01 83 02 00 80
  can1  583   [8]  60 01 18 01 00 00 00 00
  can1  080   [0] 
  can1  603   [8]  2F 01 1A 00 00 00 00 00
  can1  583   [8]  60 01 1A 00 00 00 00 00
  can1  0F1   [8]  0B 05 09 00 B5 FF FC FE
  can1  0F9   [8]  0B F9 5F 05 E6 F5 23 01
  can1  0F2   [8]  1E 08 76 02 42 00 00 00
  can1  0FA   [8]  01 01 60 1B 6D 00 00 00
  can1  080   [0] 
  can1  583   [8]  60 01 18 02 00 00 00 00
  can1  603   [8]  2F 01 18 02 01 00 00 00
  can1  080   [0] 
  can1  603   [8]  23 01 1A 01 20 00 64 60
  can1  583   [8]  60 01 1A 01 00 00 00 00
  can1  0F1   [8]  0B 05 12 00 91 FF E8 FE
  can1  0F9   [8]  0B F9 58 05 DF F5 0E 00
  can1  0F2   [8]  11 08 7F 02 0B 00 00 00
  can1  0FA   [8]  F6 01 6D 1B 67 00 00 00
  can1  080   [0] 
  can1  603   [8]  23 01 1A 02 20 00 6C 60
  can1  583   [8]  60 01 1A 02 00 00 00 00
  can1  080   [0] 
  can1  603   [8]  2F 01 1A 00 02 00 00 00
  can1  583   [8]  60 01 1A 00 00 00 00 00
  can1  0F1   [8]  0B 05 14 00 B0 FF E9 FE
  can1  0F9   [8]  0B F9 51 05 FF F5 1D 01
  can1  0F2   [8]  19 08 77 02 04 00 00 00
  can1  0FA   [8]  00 01 5A 1B 73 00 00 00
  can1  080   [0] 
  can1  603   [8]  23 01 18 01 83 02 00 00
  can1  583   [8]  60 01 18 01 00 00 00 00
  can1  080   [0] 
  can1  0F1   [8]  0B 05 04 00 AA FF EC FE
  can1  0F9   [8]  0B F9 72 05 F6 F5 16 01
  can1  0F2   [8]  07 08 7E 02 14 00 00 00
  can1  0FA   [8]  0A 01 6E 1B 80 00 00 00
  can1  080   [0] 
  can1  603   [8]  23 02 18 01 83 03 00 80
  can1  583   [8]  60 02 18 01 00 00 00 00
  can1  080   [0] 
  can1  603   [8]  2F 02 1A 00 00 00 00 00
  can1  583   [8]  60 02 1A 00 00 00 00 00
  can1  0F1   [8]  0B 04 FE 00 A5 FF F1 FE
  can1  0F9   [8]  0B F9 62 05 D7 F5 28 01
  can1  0F2   [8]  21 08 85 02 13 00 00 00
  can1  0FA   [8]  07 01 5A 1B 90 00 00 00
  can1  080   [0] 
  can1  603   [8]  2F 02 18 02 01 00 00 00
  can1  583   [8]  60 02 18 02 00 00 00 00
  can1  080   [0] 
  can1  603   [8]  23 02 1A 01 10 00 77 60
  can1  583   [8]  60 02 1A 01 00 00 00 00
  can1  0F1   [8]  0B 05 0F 00 B5 FF EA FE
  can1  0F9   [8]  0B F9 5F 05 E4 F5 07 01
  can1  0F2   [8]  23 08 88 02 1C 00 00 00
  can1  0FA   [8]  18 01 5A 1B 63 00 00 00
  can1  080   [0] 
  can1  765   [1]  05
  can1  603   [8]  2F 02 1A 00 01 00 00 00
  can1  583   [8]  60 02 1A 00 00 00 00 00
  can1  080   [0] 
  can1  603   [8]  23 02 18 01 83 03 00 00
  can1  583   [8]  60 02 18 01 00 00 00 00
  can1  0F1   [8]  0B 05 08 00 B7 FF F2 FE
  can1  0F9   [8]  0B F9 5A 06 01 F5 16 01
  can1  0F2   [8]  2B 08 87 02 27 00 00 00
  can1  0FA   [8]  0E 01 54 1B 76 00 00 00
  can1  080   [0] 
  can1  603   [8]  23 00 14 01 03 02 00 80
  can1  583   [8]  60 00 14 01 00 00 00 00
  can1  080   [0] 
  can1  603   [8]  2F 00 16 00 00 00 00 00
  can1  583   [8]  60 00 16 00 00 00 00 00
  can1  0F1   [8]  0B 05 18 00 93 FF F3 FE
  can1  0F9   [8]  0B F9 5A 05 E1 F5 1E 00
  can1  0F2   [8]  2D 08 78 02 0C 00 00 00
  can1  0FA   [8]  FD 01 6A 1B 96 00 00 00
  can1  080   [0] 
  can1  603   [8]  2F 00 14 02 FF 00 00 00
  can1  764   [1]  05
  can1  583   [8]  60 00 14 02 00 00 00 00
  can1  080   [0] 
  can1  603   [8]  23 00 16 01 10 00 40 60
  can1  583   [8]  60 00 16 01 00 00 00 00
  can1  0F1   [8]  0B 05 1C 00 AD FF E4 FE
  can1  0F9   [8]  0B F9 52 05 E3 F5 16 00
  can1  0F2   [8]  28 08 8E 02 1B 00 00 00
  can1  0FA   [8]  EB 01 6B 1B 72 00 00 00
  can1  080   [0] 
  can1  603   [8]  2F 00 16 00 01 00 00 00
  can1  583   [8]  60 00 16 00 00 00 00 00
  can1  080   [0] 
  can1  0F1   [8]  0B 04 E8 00 7F FF E6 FE
  can1  0F9   [8]  0B F9 61 05 E2 F5 26 00
  can1  0F2   [8]  30 08 85 01 F8 00 00 00
  can1  0FA   [8]  F7 01 64 1B 75 00 00 00
  can1  080   [0] 
  can1  603   [8]  23 00 14 01 03 02 00 00
  can1  583   [8]  60 00 14 01 00 00 00 00
  can1  080   [0] 
  can1  603   [8]  23 01 14 01 03 03 00 80
  can1  583   [8]  60 01 14 01 00 00 00 00
  can1  0F1   [8]  0B 05 18 00 AD 00 05 FD
  can1  0F9   [8]  0B F9 5B 05 FC F5 1B 01
  can1  0F2   [8]  FE 08 7B 02 45 00 00 00
  can1  0FA   [8]  04 01 67 1B 76 00 00 00
  can1  080   [0] 
  can1  603   [8]  2F 01 16 00 00 00 00 00
  can1  583   [8]  60 01 16 00 00 00 00 00
  can1  080   [0] 
  can1  603   [8]  2F 01 14 02 FF 00 00 00
  can1  583   [8]  60 01 14 02 00 00 00 00
  can1  0F1   [8]  0B 05 15 00 91 FF F1 FE
  can1  0F9   [8]  0B F9 58 05 E6 F5 16 00
  can1  0F2   [8]  21 08 A5 02 17 00 00 00
  can1  0FA   [8]  ED 01 64 1B 7C 00 00 00
  can1  080   [0] 
  can1  583   [8]  60 01 16 01 00 00 00 00
  can1  603   [8]  23 01 16 01 20 00 7A 60
  can1  080   [0] 
  can1  603   [8]  2F 01 16 00 01 00 00 00
  can1  583   [8]  60 01 16 00 00 00 00 00
  can1  0F1   [8]  0B 05 1A 00 A2 FF F6 FE
  can1  0F9   [8]  0B F9 64 05 F3 F5 0B 00
  can1  0F2   [8]  20 08 94 02 0C 00 00 00
  can1  0FA   [8]  F6 01 69 1B 85 00 00 00
  can1  080   [0] 
  can1  603   [8]  23 01 14 01 03 03 00 00
  can1  583   [8]  60 01 14 01 00 00 00 00
  can1  080   [0] 
  can1  603   [8]  23 02 14 01 03 04 00 80
  can1  583   [8]  60 02 14 01 00 00 00 00
  can1  0F1   [8]  0B 05 11 00 B0 FF FC FE
  can1  0F9   [8]  0B F9 68 05 EC F5 19 00
  can1  0F2   [8]  2A 08 89 02 20 00 00 00
  can1  0FA   [8]  FE 01 7B 1B 7E 00 00 00
  can1  080   [0] 
  can1  603   [8]  2F 02 16 00 00 00 00 00
  can1  583   [8]  60 02 16 00 00 00 00 00
  can1  080   [0] 
  can1  603   [8]  2F 02 14 02 FF 00 00 00
  can1  583   [8]  60 02 14 02 00 00 00 00
  can1  0F1   [8]  0B 05 0C 00 9A FF F9 FE
  can1  0F9   [8]  0B F9 65 05 DC F5 1B 00
  can1  0F2   [8]  18 08 84 02 0C 00 00 00
  can1  080   [0] 
  can1  0FA   [8]  FB 01 72 1B 78 00 00 00
  can1  603   [8]  23 02 16 01 20 00 FF 60
  can1  583   [8]  60 02 16 01 00 00 00 00
  can1  080   [0] 
  can1  0F1   [8]  0B 05 16 00 B4 00 03 FE
  can1  0F9   [8]  0B F9 51 05 E3 F5 30 00
  can1  0F2   [8]  2D 08 81 02 1F 00 00 00
  can1  0FA   [8]  F3 01 59 1B 7C 00 00 00
  can1  080   [0] 
  can1  603   [8]  2F 02 16 00 01 00 00 00
  can1  583   [8]  60 02 16 00 00 00 00 00
  can1  080   [0] 
  can1  603   [8]  23 02 14 01 03 04 00 00
  can1  583   [8]  60 02 14 01 00 00 00 00
  can1  0F1   [8]  0B 05 09 00 BE FF EA FE
  can1  0F9   [8]  0B F9 69 05 ED F5 18 00
  can1  0F2   [8]  24 08 90 02 10 00 00 00
  can1  0FA   [8]  F6 01 4D 1B 6D 00 00 00
  can1  080   [0] 
  can1  603   [8]  23 03 14 01 03 05 00 80
  can1  583   [8]  60 03 14 01 00 00 00 00
  can1  080   [0] 
  can1  603   [8]  2F 03 16 00 00 00 00 00
  can1  583   [8]  60 03 16 00 00 00 00 00
  can1  0F1   [8]  0B 05 04 00 93 FF EC FE
  can1  0F9   [8]  0B F9 5D 05 D2 F5 21 01
  can1  0F2   [8]  25 08 86 02 13 00 00 00
  can1  0FA   [8]  01 01 57 1B 6F 00 00 00
  can1  080   [0] 
  can1  583   [8]  60 03 14 02 00 00 00 00
  can1  603   [8]  2F 03 14 02 FF 00 00 00
  can1  080   [0] 
  can1  603   [8]  23 03 16 01 10 00 71 60
  can1  583   [8]  60 03 16 01 00 00 00 00
  can1  0F1   [8]  0B 05 1F 00 B3 FF E1 FE
  can1  0F9   [8]  0B F9 6D 05 D9 F5 26 00
  can1  0F2   [8]  3D 08 7C 02 23 00 00 00
  can1  0FA   [8]  F7 01 5B 1B 71 00 00 00
  can1  080   [0] 
  can1  603   [8]  2F 03 16 00 01 00 00 00
  can1  583   [8]  60 03 16 00 00 00 00 00
  can1  080   [0] 
  can1  603   [8]  23 03 14 01 03 05 00 00
  can1  583   [8]  60 03 14 01 00 00 00 00
  can1  0F1   [8]  0B 05 09 00 9A FF E9 FE
  can1  0F9   [8]  0B F9 66 05 F4 F5 38 01
  can1  0F2   [8]  29 08 8C 02 10 00 00 00
  can1  0FA   [8]  0E 01 71 1B 8A 00 00 00
  can1  080   [0] 
  can1  604   [8]  23 00 18 01 84 01 00 80
  can1  584   [8]  60 00 18 01 00 00 00 00
  can1  080   [0] 
  can1  604   [8]  2F 00 1A 00 00 00 00 00
  can1  584   [8]  60 00 1A 00 00 00 00 00
  can1  0F1   [8]  0B 05 06 00 98 FF EE FE
  can1  0F9   [8]  0B F9 67 05 F2 F5 16 01
  can1  0F2   [8]  0F 08 8B 02 22 00 00 00
  can1  0FA   [8]  08 01 5E 1B 73 00 00 00
  can1  080   [0] 
  can1  604   [8]  2F 00 18 02 FF 00 00 00
  can1  584   [8]  60 00 18 02 00 00 00 00
  can1  080   [0] 
  can1  0F1   [8]  0B 04 F2 00 9F FF DF FE
  can1  0F9   [8]  0B F9 59 05 E5 F5 1B 01
  can1  0F2   [8]  1B 08 98 02 1F 00 00 00
  can1  0FA   [8]  0C 01 4B 1B 6A 00 00 00
  can1  080   [0] 
  can1  604   [8]  23 00 1A 01 10 00 41 60
  can1  584   [8]  60 00 1A 01 00 00 00 00
  can1  080   [0] 
  can1  604   [8]  2F 00 1A 00 01 00 00 00
  can1  584   [8]  60 00 1A 00 00 00 00 00
  can1  0F1   [8]  0B 05 13 00 A1 FF FE FE
  can1  0F9   [8]  0B F9 58 05 E9 F5 35 00
  can1  0F2   [8]  00 08 81 02 0C 00 00 00
  can1  0FA   [8]  F8 01 4E 1B 82 00 00 00
  can1  080   [0] 
  can1  604   [8]  23 00 18 01 84 01 00 00
  can1  584   [8]  60 00 18 01 00 00 00 00
  can1  080   [0] 
  can1  604   [8]  23 01 18 01 84 02 00 80
  can1  584   [8]  60 01 18 01 00 00 00 00
  can1  0F1   [8]  0B 04 FB 00 B7 FF F7 FE
  can1  0F9   [8]  0B F9 67 05 FF F5 28 00
  can1  0F2   [8]  36 08 82 02 27 00 00 00
  can1  0FA   [8]  FA 01 84 1B 84 00 00 00
  can1  080   [0] 
  can1  604   [8]  2F 01 1A 00 00 00 00 00
  can1  584   [8]  60 01 1A 00 00 00 00 00
  can1  080   [0] 
  can1  604   [8]  2F 01 18 02 01 00 00 00
  can1  584   [8]  60 01 18 02 00 00 00 00
  can1  0F1   [8]  0B 05 13 00 93 FF D9 FE
  can1  0F9   [8]  0B F9 53 05 EA F5 09 01
  can1  0F2   [8]  3D 08 7C 02 49 00 00 00
  can1  0FA   [8]  02 01 54 1B A0 00 00 00
  can1  080   [0] 
  can1  584   [8]  60 01 1A 01 00 00 00 00
  can1  604   [8]  23 01 1A 01 20 00 64 60
  can1  080   [0] 
  can1  604   [8]  23 01 1A 02 20 00 6C 60
  can1  584   [8]  60 01 1A 02 00 00 00 00
  can1  0F1   [8]  0B 04 F7 00 8B FF E3 FE
  can1  0F9   [8]  0B F9 5D 05 F5 F5 11 01
  can1  0F2   [8]  1E 08 84 02 07 00 00 00
  can1  0FA   [8]  02 01 58 1B 7A 00 00 00
  can1  080   [0] 
  can1  604   [8]  2F 01 1A 00 02 00 00 00
  can1  584   [8]  60 01 1A 00 00 00 00 00
  can1  080   [0] 
  can1  604   [8]  23 01 18 01 84 02 00 00
  can1  584   [8]  60 01 18 01 00 00 00 00
  can1  0F1   [8]  0B 05 0D 00 A7 FF F6 FE
  can1  0F9   [8]  0B F9 66 05 E6 F5 16 00
  can1  0F2   [8]  10 08 77 02 27 00 00 00
  can1  0FA   [8]  ED 01 61 1B 7F 00 00 00
  can1  080   [0] 
  can1  584   [8]  60 02 18 01 00 00 00 00
  can1  604   [8]  23 02 18 01 84 03 00 80
  can1  080   [0] 
  can1  0F1   [8]  0B 05 0E 00 B3 FF D5 FE
  can1  0F9   [8]  0B F9 57 05 D8 F5 1E 01
  can1  0F2   [8]  32 08 81 02 10 00 00 00
  can1  0FA   [8]  02 01 62 1B 72 00 00 00
  can1  604   [8]  2F 02 1A 00 00 00 00 00
  can1  080   [0] 
  can1  584   [8]  60 02 1A 00 00 00 00 00
  can1  080   [0] 
  can1  604   [8]  2F 02 18 02 01 00 00 00
  can1  584   [8]  60 02 18 02 00 00 00 00
  can1  0F1   [8]  0B 05 16 00 BF FF FF FE
  can1  0F9   [8]  0B F9 7F 05 F2 F5 1D 00
  can1  0F2   [8]  29 08 8E 02 33 00 00 00
  can1  0FA   [8]  E4 01 59 1B 85 00 00 00
  can1  080   [0] 
  can1  604   [8]  23 02 1A 01 10 00 77 60
  can1  584   [8]  60 02 1A 01 00 00 00 00
  can1  080   [0] 
  can1  584   [8]  60 02 1A 00 00 00 00 00
  can1  604   [8]  2F 02 1A 00 01 00 00 00
  can1  0F1   [8]  0B 05 1A 00 8D FF EC FE
  can1  0F9   [8]  0B F9 78 05 E3 F5 04 00
  can1  0F2   [8]  26 08 93 02 22 00 00 00
  can1  0FA   [8]  FE 01 67 1B 74 00 00 00
  can1  080   [0] 
  can1  584   [8]  60 02 18 01 00 00 00 00
  can1  604   [8]  23 02 18 01 84 03 00 00
  can1  080   [0] 
  can1  604   [8]  23 00 14 01 04 02 00 80
  can1  584   [8]  60 00 14 01 00 00 00 00
  can1  0F1   [8]  0B 05 11 00 B0 FF EC FE
  can1  0F9   [8]  0B F9 65 05 F5 F5 2B 01
  can1  0F2   [8]  25 08 85 02 13 00 00 00
  can1  0FA   [8]  0C 01 56 1B 80 00 00 00
  can1  080   [0] 
  can1  604   [8]  2F 00 16 00 00 00 00 00
  can1  584   [8]  60 00 16 00 00 00 00 00
  can1  080   [0] 
  can1  604   [8]  2F 00 14 02 FF 00 00 00
  can1  584   [8]  60 00 14 02 00 00 00 00
  can1  0F1   [8]  0B 04 FF 00 B0 FF EA FE
  can1  0F9   [8]  0B F9 59 05 E8 F5 16 01
  can1  0F2   [8]  31 08 80 02 3A 00 00 00
  can1  0FA   [8]  06 01 61 1B 82 00 00 00
  can1  080   [0] 
  can1  604   [8]  23 00 16 01 10 00 40 60
  can1  584   [8]  60 00 16 01 00 00 00 00
  can1  080   [0] 
  can1  604   [8]  2F 00 16 00 01 00 00 00
  can1  584   [8]  60 00 16 00 00 00 00 00
  can1  0F1   [8]  0B 05 1A 00 AF FF E1 FE
  can1  0F9   [8]  0B F9 53 05 E8 F5 38 01
  can1  0F2   [8]  24 08 7F 02 49 00 00 00
  can1  0FA   [8]  09 01 64 1B 5C 00 00 00
  can1  080   [0] 
  can1  604   [8]  23 00 14 01 04 02 00 00
  can1  584   [8]  60 00 14 01 00 00 00 00
  can1  080   [0] 
  can1  584   [8]  60 01 14 01 00 00 00 00
  can1  604   [8]  23 01 14 01 04 03 00 80
  can1  0F1   [8]  0B 05 12 00 A4 FF D7 FE
  can1  0F9   [8]  0B F9 57 05 E9 F5 28 00
  can1  0F2   [8]  3E 08 80 02 2E 00 00 00
  can1  0FA   [8]  FA 01 74 1B 7E 00 00 00
  can1  080   [0] 
  can1  604   [8]  2F 01 16 00 00 00 00 00
  can1  584   [8]  60 01 16 00 00 00 00 00
  can1  080   [0] 
  can1  0F1   [8]  0B 05 10 00 A4 FF EC FE
  can1  0F9   [8]  0B F9 69 05 EA F5 21 01
  can1  0F2   [8]  22 08 85 02 36 00 00 00
  can1  0FA   [8]  1A 01 4D 1B 8B 00 00 00
  can1  080   [0] 
  can1  604   [8]  2F 01 14 02 FF 00 00 00
  can1  584   [8]  60 01 14 02 00 00 00 00
  can1  080   [0] 
  can1  604   [8]  23 01 16 01 20 00 7A 60
  can1  584   [8]  60 01 16 01 00 00 00 00
  can1  0F1   [8]  0B 05 0E 00 C3 FF FC FE
  can1  0F9   [8]  0B F9 6F 05 CA F5 21 00
  can1  0F2   [8]  24 08 80 02 27 00 00 00
  can1  0FA   [8]  F5 01 69 1B 6F 00 00 00
  can1  080   [0] 
  can1  604   [8]  2F 01 16 00 01 00 00 00
  can1  584   [8]  60 01 16 00 00 00 00 00
  can1  080   [0] 
  can1  604   [8]  23 01 14 01 04 03 00 00
  can1  584   [8]  60 01 14 01 00 00 00 00
  can1  0F1   [8]  0B 05 06 00 A4 FF DF FE
  can1  0F9   [8]  0B F9 51 05 F3 F5 30 01
  can1  0F2   [8]  2B 08 82 02 0C 00 00 00
  can1  0FA   [8]  0D 01 7C 1B 81 00 00 00
  can1  080   [0] 
  can1  604   [8]  23 02 14 01 04 04 00 80
  can1  584   [8]  60 02 14 01 00 00 00 00
  can1  080   [0] 
  can1  604   [8]  2F 02 16 00 00 00 00 00
  can1  584   [8]  60 02 16 00 00 00 00 00
  can1  0F1   [8]  0B 05 0F 00 AC FF F9 FE
  can1  0F9   [8]  0B F9 55 05 F1 F5 18 01
  can1  0F2   [8]  33 08 8F 02 3E 00 00 00
  can1  0FA   [8]  05 01 65 1B 77 00 00 00
  can1  080   [0] 
  can1  604   [8]  2F 02 14 02 FF 00 00 00
  can1  584   [8]  60 02 14 02 00 00 00 00
  can1  080   [0] 
  can1  604   [8]  23 02 16 01 20 00 FF 60
  can1  584   [8]  60 02 16 01 00 00 00 00
  can1  0F1   [8]  0B 05 04 00 B5 FF F7 FE
  can1  0F9   [8]  0B F9 5D 05 F3 F5 2B 00
  can1  0F2   [8]  25 08 99 02 32 00 00 00
  can1  0FA   [8]  FC 01 69 1B 69 00 00 00
  can1  080   [0] 
  can1  604   [8]  2F 02 16 00 01 00 00 00
  can1  584   [8]  60 02 16 00 00 00 00 00
  can1  080   [0] 
  can1  604   [8]  23 02 14 01 04 04 00 00
  can1  584   [8]  60 02 14 01 00 00 00 00
  can1  0F1   [8]  0B 05 11 00 B1 FF F7 FE
  can1  0F9   [8]  0B F9 4A 05 E4 F5 11 01
  can1  0F2   [8]  20 08 8B 02 2B 00 00 00
  can1  080   [0] 
  can1  0FA   [8]  0B 01 77 1B 63 00 00 00
  can1  604   [8]  23 03 14 01 04 05 00 80
  can1  080   [0] 
  can1  584   [8]  60 03 14 01 00 00 00 00
  can1  0F1   [8]  0B 05 17 00 AB FF F3 FE
  can1  0F9   [8]  0B F9 52 05 DE F5 26 00
  can1  0F2   [8]  04 08 6E 02 23 00 00 00
  can1  0FA   [8]  FB 01 54 1B 8D 00 00 00
  can1  080   [0] 
  can1  604   [8]  2F 03 16 00 00 00 00 00
  can1  584   [8]  60 03 16 00 00 00 00 00
  can1  080   [0] 
  can1  604   [8]  2F 03 14 02 FF 00 00 00
  can1  584   [8]  60 03 14 02 00 00 00 00
  can1  0F1   [8]  0B 05 10 00 B4 FF E7 FE
  can1  0F9   [8]  0B F9 63 06 02 F5 10 01
  can1  0F2   [8]  2D 08 6D 02 45 00 00 00
  can1  0FA   [8]  0C 01 6D 1B 68 00 00 00
  can1  080   [0] 
  can1  604   [8]  23 03 16 01 10 00 71 60
  can1  584   [8]  60 03 16 01 00 00 00 00
  can1  080   [0] 
  can1  604   [8]  2F 03 16 00 01 00 00 00
  can1  584   [8]  60 03 16 00 00 00 00 00
  can1  0F1   [8]  0B 05 16 00 A6 FF D9 FE
  can1  0F9   [8]  0B F9 4D 05 EA F5 23 01
  can1  0F2   [8]  22 08 80 02 2B 00 00 00
  can1  0FA   [8]  0F 01 5F 1B 85 00 00 00
  can1  080   [0] 
  can1  604   [8]  23 03 14 01 04 05 00 00
  can1  584   [8]  60 03 14 01 00 00 00 00
  can1  080   [0] 
  can1  211   [1]  00
  can1  0F1   [8]  0B 05 09 00 92 FF F1 FE
  can1  0F9   [8]  0B F9 70 05 EF F5 13 01
  can1  0F2   [8]  27 08 8C 02 04 00 00 00
  can1  0FA   [8]  10 01 57 1B 77 00 00 00
  can1  080   [0] 
  can1  080   [0] 
  can1  0F1   [8]  0B 04 F9 00 A3 FF FA FE
  can1  0F9   [8]  0B F9 4F 05 DB F5 2E 01
  can1  0F2   [8]  4E 08 B7 02 27 00 00 00
  can1  0FA   [8]  01 01 6B 1B 83 00 00 00
  can1  080   [0] 
  can1  080   [0] 
  can1  0F1   [8]  0B 05 03 00 9D FF E9 FE
  can1  0F9   [8]  0B F9 67 05 E9 F5 1B 01
  can1  0F2   [8]  2A 08 8E 02 10 00 00 00
  can1  0FA   [8]  0C 01 48 1B 66 00 00 00
  can1  080   [0] 
  can1  080   [0] 
  can1  0F1   [8]  0B 05 07 00 9D FF F9 FE
  can1  0F9   [8]  0B F9 67 05 F2 F5 11 01
  can1  0F2   [8]  2F 08 91 02 23 00 00 00
  can1  0FA   [8]  0A 01 65 1B 7D 00 00 00
  can1  080   [0] 
  can1  080   [0] 
  can1  764   [1]  05
  can1  742   [1]  00
  can1  0F1   [8]  0B 05 1D 00 A2 FF F4 FE
  can1  0F9   [8]  0B F9 5F 05 D5 F5 1E 00
  can1  0F2   [8]  33 08 89 02 2A 00 00 00
  can1  080   [0] 
  can1  0FA   [8]  F9 01 51 1B 8A 00 00 00
  can1  080   [0] 
  can1  0F1   [8]  0B 05 09 00 BA FF F7 FE
  can1  0F9   [8]  0B F9 68 05 EF F5 2B 01
  can1  0F2   [8]  34 08 74 02 2A 00 00 00
  can1  0FA   [8]  0C 01 4F 1B 7A 00 00 00
  can1  080   [0] 
  can1  080   [0] 
  can1  0F1   [8]  0B 05 13 00 A3 FF F1 FE
  can1  0F9   [8]  0B F9 61 05 F1 F5 28 00
  can1  0F2   [8]  1D 08 75 02 32 00 00 00
  can1  0FA   [8]  F1 01 88 1B 66 00 00 00
  can1  080   [0] 
  can1  080   [0] 
  can1  0F1   [8]  0B 05 11 00 B1 FF EF FE
  can1  0F9   [8]  0B F9 5B 05 EA F5 2B 01
  can1  0F2   [8]  2C 08 8D 02 2B 00 00 00
  can1  0FA   [8]  0F 01 5C 1B 7E 00 00 00
  can1  080   [0] 
  can1  080   [0] 
  can1  765   [1]  05
  can1  0F1   [8]  0B 05 12 00 AA FF EA FE
  can1  0F9   [8]  0B F9 66 05 DC F5 06 00
  can1  0F2   [8]  25 08 93 02 2B 00 00 00
  can1  0FA   [8]  F7 01 44 1B 86 00 00 00
  can1  080   [0] 
  can1  080   [0] 
  can1  0F1   [8]  0B 04 FD 00 77 FF E9 FE
  can1  0F9   [8]  0B F9 5C 05 E2 F5 01 00
  can1  0F2   [8]  1D 08 A3 02 0F 00 00 00
  can1  0FA   [8]  FC 01 47 1B 71 00 00 00
  can1  080   [0] 
  can1  080   [0] 
  can1  0F1   [8]  0B 05 26 00 B2 FF FC FE
  can1  0F9   [8]  0B F9 61 05 E3 F5 20 00
  can1  0F2   [8]  2D 08 97 02 46 00 00 00
  can1  0FA   [8]  FD 01 5F 1B 6A 00 00 00
  can1  080   [0] 
  can1  080   [0] 
  can1  0F1   [8]  0B 05 08 00 94 FF F6 FE
  can1  0F9   [8]  0B F9 5B 05 F0 F5 04 01
  can1  0F2   [8]  1B 08 86 02 26 00 00 00
  can1  0FA   [8]  0D 01 51 1B 88 00 00 00
  can1  080   [0] 
  can1  080   [0] 
  can1  0F1   [8]  0B 05 0D 00 A8 FF EA FE
  can1  0F9   [8]  0B F9 6D 05 F6 F5 28 01
  can1  0F2   [8]  38 08 8D 02 23 00 00 00
  can1  0FA   [8]  0C 01 5E 1B 68 00 00 00
  can1  080   [0] 
  can1  080   [0] 
  can1  0F1   [8]  0B 05 12 00 B6 00 0B FE
  can1  0F9   [8]  0B F9 5E 05 E7 F5 11 01
  can1  0F2   [8]  3B 08 97 02 1F 00 00 00
  can1  0FA   [8]  07 01 6E 1B 8F 00 00 00
  can1  080   [0] 
  can1  080   [0] 
  can1  0F1   [8]  0B 05 08 00 9B FF F3 FE
  can1  0F9   [8]  0B F9 53 05 F9 F5 10 00
  can1  0F2   [8]  14 08 85 02 04 00 00 00
  can1  0FA   [8]  EE 01 4F 1B 81 00 00 00
  can1  080   [0] 
  can1  080   [0] 
  can1  0F1   [8]  0B 05 1E 00 B2 00 05 FE
  can1  0F9   [8]  0B F9 69 05 E1 F5 23 01
  can1  0F2   [8]  1F 08 8E 02 42 00 00 00
  can1  0FA   [8]  16 01 69 1B 70 00 00 00
  can1  080   [0] 
  can1  080   [0] 
  can1  0F1   [8]  0B 05 08 00 B0 FF FA FE
  can1  0F9   [8]  0B F9 5B 05 DF F5 23 00
  can1  0F2   [8]  30 08 85 02 32 00 00 00
  can1  0FA   [8]  FB 01 5C 1B 7F 00 00 00
  can1  080   [0] 
  can1  080   [0] 
  can1  0F1   [8]  0B 05 26 00 AB FF F9 FE
  can1  0F9   [8]  0B F9 81 05 EC F5 23 01
  can1  0F2   [8]  20 08 8A 02 3A 00 00 00
  can1  080   [0] 
  can1  0FA   [8]  07 01 5D 1B 81 00 00 00
  can1  080   [0] 
  can1  0F1   [8]  0B 05 18 00 BA FF FC FE
  can1  0F9   [8]  0B F9 54 05 DE F5 1B 00
  can1  0F2   [8]  12 08 77 02 45 00 00 00
  can1  080   [0] 
  can1  0FA   [8]  FE 01 68 1B 8D 00 00 00
  can1  080   [0] 
  can1  0F1   [8]  0B 05 08 00 A0 FF F4 FE
  can1  0F9   [8]  0B F9 63 05 EB F5 11 01
  can1  0F2   [8]  34 08 87 02 10 00 00 00
  can1  080   [0] 
  can1  0FA   [8]  04 01 62 1B 85 00 00 00
  can1  080   [0] 
  can1  0F1   [8]  0B 05 17 00 AD FF E9 FE
  can1  0F9   [8]  0B F9 5B 05 F2 F5 18 01
  can1  0F2   [8]  27 08 8B 02 1F 00 00 00
  can1  080   [0] 
  can1  0FA   [8]  04 01 83 1B 7A 00 00 00
  can1  080   [0] 
  can1  0F1   [8]  0B 04 FC 00 94 FF EC FE
  can1  0F9   [8]  0B F9 69 05 FC F5 1D 01
  can1  0F2   [8]  10 08 94 02 27 00 00 00
  can1  0FA   [8]  05 01 59 1B 79 00 00 00
  can1  080   [0] 
  can1  080   [0] 
  can1  0F1   [8]  0B 05 08 00 A6 FF EF FE
  can1  0F9   [8]  0B F9 5F 05 E7 F5 28 00
  can1  0F2   [8]  21 08 98 02 23 00 00 00
  can1  0FA   [8]  EC 01 5F 1B 6E 00 00 00
  can1  080   [0] 
  can1  080   [0] 
  can1  0F1   [8]  0B 05 18 00 AD FF E7 FE
  can1  0F9   [8]  0B F9 60 05 F2 F5 16 01
  can1  0F2   [8]  34 08 9B 02 2B 00 00 00
  can1  0FA   [8]  06 01 66 1B 6D 00 00 00
  can1  080   [0] 
  can1  080   [0] 
  can1  0F1   [8]  0B 05 18 00 A5 FF E4 FE
  can1  0F9   [8]  0B F9 5F 05 DF F5 11 01
  can1  0F2   [8]  32 08 91 02 1F 00 00 00
  can1  0FA   [8]  01 01 63 1B 6E 00 00 00
  can1  080   [0] 
  can1  080   [0] 
  can1  0F1   [8]  0B 05 0F 00 BC FF F7 FE
  can1  0F9   [8]  0B F9 64 05 F0 F5 16 01
  can1  0F2   [8]  21 08 92 02 1C 00 00 00
  can1  0FA   [8]  02 01 5A 1B 6D 00 00 00
  can1  080   [0] 
  can1  080   [0] 
  can1  0F1   [8]  0B 05 01 00 73 FF F0 FE
  can1  0F9   [8]  0B F9 66 05 FE F5 18 00
  can1  0F2   [8]  23 08 81 02 1A 00 00 00
  can1  0FA   [8]  F1 01 5D 1B 6C 00 00 00
  can1  080   [0] 
  can1  080   [0] 
  can1  0F1   [8]  0B 05 0F 00 AD FF EF FE
  can1  0F9   [8]  0B F9 48 05 E8 F5 19 00
  can1  0F2   [8]  26 08 89 02 32 00 00 00
  can1  0FA   [8]  FD 01 6A 1B 71 00 00 00
  can1  080   [0] 
  can1  080   [0] 
  can1  0F1   [8]  0B 05 06 00 A5 FF EC FE
  can1  0F9   [8]  0B F9 31 05 E8 F5 1B 00
  can1  0F2   [8]  10 08 87 02 0C 00 00 00
  can1  0FA   [8]  FB 01 6B 1B 67 00 00 00
  can1  080   [0] 
  can1  080   [0] 
  can1  0F1   [8]  0B 05 15 00 A4 FF E7 FE
  can1  0F9   [8]  0B F9 61 06 02 F5 1B 00
  can1  0F2   [8]  24 08 88 02 3D 00 00 00
  can1  0FA   [8]  FF 01 4F 1B 91 00 00 00
  can1  080   [0] 
  can1  080   [0] 
  can1  0F1   [8]  0B 05 02 00 A4 FF E7 FE
  can1  0F9   [8]  0B F9 64 05 FA F5 18 00
  can1  0F2   [8]  2B 08 83 02 10 00 00 00
  can1  0FA   [8]  FF 01 6B 1B 65 00 00 00
  can1  080   [0] 
  can1  080   [0] 
  can1  0F1   [8]  0B 05 1E 00 9A FF F7 FE
  can1  0F9   [8]  0B F9 6B 05 E6 F5 28 00
  can1  0F2   [8]  38 08 91 02 2A 00 00 00
  can1  0FA   [8]  FC 01 63 1B 77 00 00 00
  can1  080   [0] 
  can1  080   [0] 
  can1  0F1   [8]  0B 05 1E 00 95 FF EC FE
  can1  0F9   [8]  0B F9 6F 05 E3 F5 26 00
  can1  0F2   [8]  1C 08 90 02 2A 00 00 00
  can1  0FA   [8]  F9 01 5B 1B 82 00 00 00
  can1  080   [0] 
  can1  080   [0] 
  can1  0F1   [8]  0B 05 0E 00 B1 FF ED FE
  can1  0F9   [8]  0B F9 54 05 F4 F5 1B 01
  can1  0F2   [8]  28 08 98 02 2E 00 00 00
  can1  0FA   [8]  13 01 6F 1B 7A 00 00 00
  can1  080   [0] 
  can1  080   [0] 
  can1  0F1   [8]  0B 05 10 00 AD FF F4 FE
  can1  0F9   [8]  0B F9 5A 05 FE F5 0B 01
  can1  0F2   [8]  32 08 99 02 27 00 00 00
  can1  0FA   [8]  19 01 42 1B 68 00 00 00
  can1  080   [0] 
  can1  080   [0] 
  can1  0F1   [8]  0B 05 18 00 AC 00 08 FE
  can1  0F9   [8]  0B F9 65 05 F0 F5 09 00
  can1  0F2   [8]  0C 08 7A 02 3A 00 00 00
  can1  0FA   [8]  EE 01 5D 1B 77 00 00 00
  can1  080   [0] 
  can1  080   [0] 
  can1  0F1   [8]  0B 05 07 00 9F FF E4 FE
  can1  0F9   [8]  0B F9 68 05 F7 F5 13 01
  can1  0F2   [8]  20 08 8E 02 17 00 00 00
  can1  0FA   [8]  14 01 6A 1B 87 00 00 00
  can1  080   [0] 
  can1  080   [0] 
  can1  0F1   [8]  0B 05 23 00 BE FF E7 FE
  can1  0F9   [8]  0B F9 65 05 D8 F5 1E 01
  can1  0F2   [8]  40 08 70 02 46 00 00 00
  can1  0FA   [8]  04 01 58 1B 7F 00 00 00
  can1  080   [0] 
  can1  080   [0] 
  can1  0F1   [8]  0B 05 01 00 98 00 02 FE
  can1  0F9   [8]  0B F9 55 05 E2 F5 16 01
  can1  0F2   [8]  20 08 88 02 3E 00 00 00
  can1  0FA   [8]  01 01 57 1B 75 00 00 00
  can1  080   [0] 
  can1  080   [0] 
  can1  0F1   [8]  0B 05 07 00 B8 00 13 FE
  can1  0F9   [8]  0B F9 50 05 F6 F5 0E 01
  can1  0F2   [8]  17 08 80 02 32 00 00 00
  can1  0FA   [8]  18 01 52 1B 7D 00 00 00
  can1  080   [0] 
  can1  080   [0] 
  can1  0F1   [8]  0B 05 0B 00 96 00 0A FE
  can1  0F9   [8]  0B F9 5B 05 DD F5 21 01
  can1  0F2   [8]  2F 08 94 02 14 00 00 00
  can1  0FA   [8]  13 01 64 1B 89 00 00 00
  can1  080   [0] 
  can1  080   [0] 
  can1  0F1   [8]  0B 05 0B 00 A9 FF FE FE
  can1  0F9   [8]  0B F9 6B 05 EE F5 0E 01
  can1  0F2   [8]  27 08 83 02 3A 00 00 00
  can1  0FA   [8]  0B 01 4A 1B 88 00 00 00
  can1  080   [0] 
  can1  080   [0] 
  can1  0F1   [8]  0B 05 16 00 9B FF F6 FE
  can1  0F9   [8]  0B F9 55 05 EA F5 16 01
  can1  0F2   [8]  26 08 93 02 32 00 00 00
  can1  0FA   [8]  0A 01 6D 1B 8C 00 00 00
  can1  080   [0] 
  can1  080   [0] 
  can1  0F1   [8]  0B 04 E9 00 64 FF E9 FE
  can1  0F9   [8]  0B F9 67 05 F8 F5 1D 00
  can1  0F2   [8]  2C 08 A2 01 D1 00 00 00
  can1  0FA   [8]  FE 01 5C 1B 92 00 00 00
  can1  080   [0] 
  can1  080   [0] 
  can1  0F1   [8]  0B 05 26 00 B5 FF F1 FE
  can1  0F9   [8]  0B F9 54 05 F7 F5 03 00
  can1  0F2   [8]  34 08 71 02 55 00 00 00
  can1  0FA   [8]  F4 01 43 1B 41 00 00 00
  can1  080   [0] 
  can1  080   [0] 
  can1  0F1   [8]  0B 05 13 00 BA FF F7 FE
  can1  0F9   [8]  0B F9 63 05 E6 F5 19 01
  can1  0F2   [8]  37 08 7D 02 0C 00 00 00
  can1  0FA   [8]  2A 01 4F 1B 77 00 00 00
  can1  080   [0] 
  can1  080   [0] 
  can1  764   [1]  05
  can1  0F1   [8]  0B 05 12 00 88 FF F3 FE
  can1  0F9   [8]  0B F9 43 05 F5 F5 13 00
  can1  0F2   [8]  36 08 7C 02 23 00 00 00
  can1  0FA   [8]  F6 01 58 1B 81 00 00 00
  can1  080   [0] 
  can1  080   [0] 
  can1  0F1   [8]  0B 05 0B 00 94 FF F9 FE
  can1  0F9   [8]  0B F9 5B 05 F2 F5 16 00
  can1  0F2   [8]  22 08 A7 02 1B 00 00 00
  can1  0FA   [8]  FE 01 58 1B 7E 00 00 00
  can1  080   [0] 
  can1  080   [0] 
  can1  0F1   [8]  0B 04 F9 00 AD 00 06 FE
  can1  0F9   [8]  0B F9 6D 05 F6 F5 16 01
  can1  0F2   [8]  3C 08 99 02 08 00 00 00
  can1  0FA   [8]  08 01 5D 1B 73 00 00 00
  can1  080   [0] 
  can1  080   [0] 
  can1  0F1   [8]  0B 05 07 00 A5 FF F9 FE
  can1  0F9   [8]  0B F9 66 05 E8 F5 20 01
  can1  0F2   [8]  2B 08 93 02 2E 00 00 00
  can1  0FA   [8]  0A 01 78 1B 77 00 00 00
  can1  080   [0] 
  can1  080   [0] 
  can1  0F1   [8]  0B 05 08 00 9C FF E7 FE
  can1  0F9   [8]  0B F9 6A 05 CF F5 14 00
  can1  0F2   [8]  1D 08 86 02 3E 00 00 00
  can1  0FA   [8]  FA 01 4C 1B 80 00 00 00
  can1  080   [0] 
  can1  080   [0] 
  can1  0F1   [8]  0B 05 0A 00 97 FF E6 FE
  can1  0F9   [8]  0B F9 68 05 F9 F5 1D 01
  can1  0F2   [8]  1D 08 7F 02 1F 00 00 00
  can1  0FA   [8]  03 01 60 1B 7D 00 00 00
  can1  080   [0] 
  can1  080   [0] 
  can1  0F1   [8]  0B 05 1D 00 AA FF E4 FE
  can1  0F9   [8]  0B F9 51 05 DC F5 0E 00
  can1  0F2   [8]  24 08 82 02 1F 00 00 00
  can1  0FA   [8]  F8 01 61 1B 72 00 00 00
  can1  080   [0] 
  can1  080   [0] 
  can1  0F1   [8]  0B 05 10 00 B6 00 05 FE
  can1  0F9   [8]  0B F9 5F 05 EC F5 20 00
  can1  0F2   [8]  1D 08 66 02 3A 00 00 00
  can1  0FA   [8]  FA 01 5A 1B 77 00 00 00
  can1  080   [0] 
  can1  080   [0] 
  can1  765   [1]  05
  can1  742   [1]  00
  can1  0F1   [8]  0B 05 05 00 B0 00 10 FE
  can1  0F9   [8]  0B F9 65 05 F5 F5 1E 01
  can1  0F2   [8]  28 08 8F 02 14 00 00 00
  can1  080   [0] 
  can1  0FA   [8]  08 01 5F 1B 80 00 00 00
  can1  080   [0] 
  can1  0F1   [8]  0B 04 FA 00 A2 FF ED FE
  can1  0F9   [8]  0B F9 69 05 EF F5 1B 01
  can1  0F2   [8]  2F 08 A5 02 36 00 00 00
  can1  0FA   [8]  0D 01 66 1B 70 00 00 00
  can1  080   [0] 
  can1  080   [0] 
  can1  0F1   [8]  0B 05 09 00 98 FF FB FE
  can1  0F9   [8]  0B F9 71 05 E8 F5 21 01
  can1  0F2   [8]  10 08 79 02 08 00 00 00
  can1  0FA   [8]  12 01 36 1B 7A 00 00 00
  can1  080   [0] 
  can1  080   [0] 
  can1  0F1   [8]  0B 05 0C 00 A1 FF F1 FE
  can1  0F9   [8]  0B F9 68 05 DD F5 19 00
  can1  0F2   [8]  2E 08 7E 02 2E 00 00 00
  can1  0FA   [8]  FA 01 63 1B 67 00 00 00
  can1  080   [0] 
  can1  080   [0] 
  can1  0F1   [8]  0B 05 15 00 98 FF F6 FE
  can1  0F9   [8]  0B F9 6D 05 EC F5 04 00
  can1  0F2   [8]  1F 08 76 02 2A 00 00 00
  can1  080   [0] 
  can1  0FA   [8]  F9 01 53 1B 85 00 00 00
  can1  080   [0] 
  can1  0F1   [8]  0B 05 1C 00 B0 FF E1 FE
  can1  0F9   [8]  0B F9 63 05 DB F5 1B 01
  can1  0F2   [8]  39 08 71 02 1F 00 00 00
  can1  0FA   [8]  08 01 4F 1B 82 00 00 00
  can1  080   [0] 
  can1  080   [0] 
  can1  0F1   [8]  0B 05 0D 00 BF FF E0 FE
  can1  0F9   [8]  0B F9 65 05 FB F5 19 01
  can1  0F2   [8]  34 08 92 02 2E 00 00 00
  can1  0FA   [8]  1B 01 55 1B 61 00 00 00
  can1  080   [0] 
  can1  080   [0] 
  can1  0F1   [8]  0B 05 08 00 97 FF EC FE
  can1  0F9   [8]  0B F9 68 05 E3 F5 1B 00
  can1  0F2   [8]  22 08 99 02 23 00 00 00
  can1  0FA   [8]  F4 01 62 1B 7B 00 00 00
  can1  080   [0] 
  can1  080   [0] 
  can1  0F1   [8]  0B 05 21 00 AA FF F4 FE
  can1  0F9   [8]  0B F9 65 05 C8 F5 19 01
  can1  0F2   [8]  30 08 83 02 32 00 00 00
  can1  0FA   [8]  10 01 3D 1B 68 00 00 00
  can1  080   [0] 
  can1  080   [0] 
  can1  0F1   [8]  0B 05 03 00 A2 FF F1 FE
  can1  0F9   [8]  0B F9 61 05 EB F5 1B 01
  can1  0F2   [8]  11 08 76 02 1F 00 00 00
  can1  0FA   [8]  0D 01 49 1B 70 00 00 00
  can1  080   [0] 
  can1  080   [0] 
  can1  0F1   [8]  0B 05 19 00 B9 FF DC FE
  can1  0F9   [8]  0B F9 63 05 EB F5 1E 00
  can1  0F2   [8]  28 08 7C 02 3A 00 00 00
  can1  0FA   [8]  FF 01 68 1B 8F 00 00 00
  can1  080   [0] 
  can1  080   [0] 
  can1  0F1   [8]  0B 04 FC 00 97 FF EE FE
  can1  0F9   [8]  0B F9 6F 05 F4 F5 18 00
  can1  0F2   [8]  14 08 72 02 2A 00 00 00
  can1  0FA   [8]  EC 01 68 1B 70 00 00 00
  can1  080   [0] 
  can1  080   [0] 
  can1  0F1   [8]  0B 05 05 00 9C FF EC FE
  can1  0F9   [8]  0B F9 7E 05 E2 F5 21 01
  can1  0F2   [8]  17 08 97 02 36 00 00 00
  can1  0FA   [8]  09 01 54 1B 85 00 00 00
  can1  080   [0] 
  can1  080   [0] 
  can1  0F1   [8]  0B 05 0A 00 B7 00 09 FE
  can1  0F9   [8]  0B F9 48 05 DE F5 11 00
  can1  0F2   [8]  20 08 9D 02 33 00 00 00
  can1  0FA   [8]  FF 01 56 1B 79 00 00 00
  can1  080   [0] 
  can1  080   [0] 
  can1  0F1   [8]  0B 05 04 00 A2 FF F4 FE
  can1  0F9   [8]  0B F9 63 05 D9 F5 30 00
  can1  0F2   [8]  23 08 81 02 1F 00 00 00
  can1  0FA   [8]  F9 01 65 1B 71 00 00 00
  can1  080   [0] 
  can1  080   [0] 
  can1  0F1   [8]  0B 05 2D 00 BA FF EF FE
  can1  0F9   [8]  0B F9 5A 05 EE F5 2B 01
  can1  0F2   [8]  4B 08 90 02 3A 00 00 00
  can1  0FA   [8]  0D 01 69 1B 77 00 00 00
  can1  080   [0] 
  can1  080   [0] 
  can1  0F1   [8]  0B 05 03 00 56 FF E8 FE
  can1  0F9   [8]  0B F9 6D 05 F8 F5 06 01
  can1  0F2   [8]  16 08 9C 01 F8 00 00 00
  can1  0FA   [8]  04 01 40 1B 8E 00 00 00
  can1  080   [0] 
  can1  080   [0] 
  can1  0F1   [8]  0B 05 10 00 B8 FF EF FE
  can1  0F9   [8]  0B F9 61 05 E2 F5 19 00
  can1  0F2   [8]  30 08 7F 02 42 00 00 00
  can1  0FA   [8]  F6 01 61 1B 75 00 00 00
  can1  080   [0] 
  can1  080   [0] 
  can1  0F1   [8]  0B 05 20 00 A6 FF F4 FE
  can1  0F9   [8]  0B F9 57 05 F9 F5 20 01
  can1  0F2   [8]  21 08 88 02 18 00 00 00
  can1  0FA   [8]  15 01 5A 1B 91 00 00 00
  can1  080   [0] 
  can1  080   [0] 
  can1  0F1   [8]  0B 05 0C 00 95 FF E4 FE
  can1  0F9   [8]  0B F9 6C 05 F2 F5 23 01
  can1  0F2   [8]  41 08 94 02 1F 00 00 00
  can1  0FA   [8]  13 01 6A 1B 76 00 00 00
  can1  080   [0] 
  can1  080   [0] 
  can1  0F1   [8]  0B 05 14 00 B0 FF E2 FE
  can1  0F9   [8]  0B F9 52 05 ED F5 0E 01
  can1  0F2   [8]  30 08 83 02 27 00 00 00
  can1  0FA   [8]  1B 01 56 1B 70 00 00 00
  can1  080   [0] 
  can1  080   [0] 
  can1  0F1   [8]  0B 05 0F 00 AC FF F7 FE
  can1  0F9   [8]  0B F9 5D 05 F1 F5 35 01
  can1  0F2   [8]  36 08 90 02 27 00 00 00
  can1  0FA   [8]  0B 01 6C 1B 87 00 00 00
  can1  080   [0] 
  can1  080   [0] 
  can1  0F1   [8]  0B 04 F4 00 8B 00 03 FE
  can1  0F9   [8]  0B F9 64 05 E8 F5 1E 01
  can1  0F2   [8]  2E 08 92 02 17 00 00 00
  can1  0FA   [8]  0C 01 5D 1B 77 00 00 00
  can1  080   [0] 
  can1  080   [0] 
  can1  0F1   [8]  0B 05 19 00 B0 00 03 FE
  can1  0F9   [8]  0B F9 69 05 E3 F5 04 00
  can1  0F2   [8]  2A 08 87 02 23 00 00 00
  can1  0FA   [8]  EC 01 6A 1B 7B 00 00 00
  can1  080   [0] 
  can1  080   [0] 
  can1  0F1   [8]  0B 05 09 00 8E FF E6 FE
  can1  0F9   [8]  0B F9 54 05 EB F5 1B 01
  can1  0F2   [8]  0B 08 91 02 1B 00 00 00
  can1  0FA   [8]  09 01 60 1B 6D 00 00 00
  can1  080   [0] 
  can1  080   [0] 
  can1  0F1   [8]  0B 05 02 00 97 FF F1 FE
  can1  0F9   [8]  0B F9 64 05 D5 F5 1C 01
  can1  0F2   [8]  23 08 89 02 1B 00 00 00
  can1  0FA   [8]  0B 01 5A 1B 78 00 00 00
  can1  080   [0] 
  can1  080   [0] 
  can1  0F1   [8]  0B 05 06 00 97 FF FE FE
  can1  0F9   [8]  0B F9 69 05 E2 F5 2B 01
  can1  0F2   [8]  2C 08 94 02 45 00 00 00
  can1  080   [0] 
  can1  0FA   [8]  03 01 6F 1B 7B 00 00 00
  can1  080   [0] 
  can1  0F1   [8]  0B 05 06 00 AD FF EC FE
  can1  0F9   [8]  0B F9 63 05 F2 F5 16 01
  can1  0F2   [8]  2B 08 85 02 2E 00 00 00
  can1  0FA   [8]  04 01 54 1B 7A 00 00 00
  can1  080   [0] 
  can1  080   [0] 
  can1  0F1   [8]  0B 04 EF 00 97 FF EF FE
  can1  0F9   [8]  0B F9 5B 05 F1 F5 1B 01
  can1  0F2   [8]  23 08 A2 02 23 00 00 00
  can1  0FA   [8]  00 01 55 1B 88 00 00 00
  can1  080   [0] 
  can1  080   [0] 
  can1  0F1   [8]  0B 05 17 00 99 FF E9 FE
  can1  0F9   [8]  0B F9 5A 05 E2 F5 0C 01
  can1  0F2   [8]  21 08 92 02 41 00 00 00
  can1  0FA   [8]  21 01 56 1B 92 00 00 00
  can1  080   [0] 
  can1  080   [0] 
  can1  0F1   [8]  0B 04 FC 00 87 FF E9 FE
  can1  0F9   [8]  0B F9 6C 05 F6 F5 0B 01
  can1  0F2   [8]  28 08 9B 01 DD 00 00 00
  can1  0FA   [8]  06 01 56 1B 73 00 00 00
  can1  080   [0] 
  can1  080   [0] 
  can1  0F1   [8]  0B 05 0F 00 B2 FF D7 FE
  can1  0F9   [8]  0B F9 5F 05 E1 F5 16 01
  can1  0F2   [8]  1F 08 72 02 36 00 00 00
  can1  0FA   [8]  05 01 78 1B 85 00 00 00
  can1  080   [0] 
  can1  080   [0] 
  can1  0F1   [8]  0B 05 06 00 AB FF FE FE
  can1  0F9   [8]  0B F9 67 05 F6 F5 2B 01
  can1  0F2   [8]  21 08 80 02 00 00 00 00
  can1  0FA   [8]  12 01 72 1B 57 00 00 00
  can1  080   [0] 
  can1  080   [0] 
  can1  0F1   [8]  0B 05 12 00 A8 FF F7 FE
  can1  0F9   [8]  0B F9 68 05 E7 F5 13 01
  can1  0F2   [8]  3A 08 94 02 14 00 00 00
  can1  0FA   [8]  0F 01 59 1B 99 00 00 00
  can1  080   [0] 
  can1  080   [0] 
  can1  764   [1]  05
  can1  0F1   [8]  0B 05 0B 00 90 00 17 FE
  can1  0F9   [8]  0B F9 4D 05 F8 F5 28 01
  can1  0F2   [8]  13 08 92 02 14 00 00 00
  can1  0FA   [8]  0F 01 58 1B 65 00 00 00
  can1  080   [0] 
  can1  080   [0] 
  can1  0F1   [8]  0B 05 0B 00 AD FF FC FE
  can1  0F9   [8]  0B F9 68 06 07 F5 1B 00
  can1  0F2   [8]  16 08 91 02 14 00 00 00
  can1  0FA   [8]  FD 01 5B 1B 72 00 00 00
  can1  080   [0] 
  can1  080   [0] 
  can1  0F1   [8]  0B 05 1D 00 B9 FF E2 FE
  can1  0F9   [8]  0B F9 47 05 DE F5 13 00
  can1  0F2   [8]  24 08 85 02 2B 00 00 00
  can1  0FA   [8]  F7 01 55 1B 79 00 00 00
  can1  080   [0] 
  can1  080   [0] 
  can1  0F1   [8]  0B 04 FE 00 6F FF E5 FE
  can1  0F9   [8]  0B F9 60 05 D6 F5 11 00
  can1  0F2   [8]  25 08 69 01 F4 00 00 00
  can1  0FA   [8]  EE 01 63 1B 76 00 00 00
  can1  080   [0] 
  can1  080   [0] 
  can1  0F1   [8]  0B 05 14 00 AA FF F7 FE
  can1  0F9   [8]  0B F9 56 05 F2 F5 10 00
  can1  0F2   [8]  2D 08 7F 02 3D 00 00 00
  can1  0FA   [8]  F4 01 7C 1B 81 00 00 00
  can1  080   [0] 
  can1  080   [0] 
  can1  0F1   [8]  0B 05 10 00 94 FF E1 FE
  can1  0F9   [8]  0B F9 5F 05 EF F5 16 00
  can1  0F2   [8]  17 08 83 02 13 00 00 00
  can1  0FA   [8]  F6 01 78 1B 7B 00 00 00
  can1  080   [0] 
  can1  080   [0] 
  can1  0F1   [8]  0B 05 10 00 A3 FF FB FE
  can1  0F9   [8]  0B F9 5F 05 EA F5 2D 01
  can1  0F2   [8]  17 08 82 02 36 00 00 00
  can1  0FA   [8]  0D 01 5E 1B 81 00 00 00
  can1  080   [0] 
  can1  080   [0] 
  can1  0F1   [8]  0B 04 FA 00 9D FF EE FE
  can1  0F9   [8]  0B F9 64 05 E3 F5 21 01
  can1  0F2   [8]  2F 08 89 02 23 00 00 00
  can1  0FA   [8]  1B 01 78 1B 8F 00 00 00
  can1  080   [0] 
  can1  080   [0] 
  can1  0F1   [8]  0B 04 F9 00 9D FF E7 FE
  can1  0F9   [8]  0B F9 5C 05 F2 F5 13 01
  can1  0F2   [8]  2A 08 85 02 17 00 00 00
  can1  0FA   [8]  04 01 60 1B 74 00 00 00
  can1  080   [0] 
  can1  080   [0] 
  can1  0F1   [8]  0B 04 FA 00 AE FF EA FE
  can1  0F9   [8]  0B F9 4B 05 DD F5 2D 01
  can1  0F2   [8]  29 08 8B 02 3A 00 00 00
  can1  0FA   [8]  06 01 58 1B 90 00 00 00
  can1  080   [0] 
  can1  080   [0] 
  can1  0F1   [8]  0B 05 08 00 AB FF E4 FE
  can1  0F9   [8]  0B F9 65 05 D9 F5 16 00
  can1  0F2   [8]  29 08 8B 02 49 00 00 00
  can1  0FA   [8]  FA 01 50 1B 75 00 00 00
  can1  080   [0] 
  can1  080   [0] 
  can1  0F1   [8]  0B 04 F7 00 A1 FF F1 FE
  can1  0F9   [8]  0B F9 62 05 E9 F5 14 01
  can1  0F2   [8]  28 08 7E 02 08 00 00 00
  can1  0FA   [8]  1D 01 50 1B 84 00 00 00
  can1  080   [0] 
  can1  765   [1]  05
  can1  080   [0] 
  can1  0F1   [8]  0B 05 15 00 99 00 05 FE
  can1  0F9   [8]  0B F9 68 05 F1 F5 33 01
  can1  0F2   [8]  3B 08 7F 02 0F 00 00 00
  can1  0FA   [8]  14 01 65 1B 7D 00 00 00
  can1  080   [0] 
  can1  080   [0] 
  can1  0F1   [8]  0B 04 F6 00 7F FF E6 FE
  can1  0F9   [8]  0B F9 63 06 01 F5 25 00
  can1  0F2   [8]  22 08 86 01 CA 00 00 00
  can1  0FA   [8]  EB 01 4C 1B 5B 00 00 00
  can1  080   [0] 
  can1  080   [0] 
  can1  0F1   [8]  0B 05 19 00 C0 00 06 FE
  can1  0F9   [8]  0B F9 57 05 DB F5 26 01
  can1  0F2   [8]  1F 08 84 02 3B 00 00 00
  can1  0FA   [8]  0B 01 72 1B 75 00 00 00
  can1  080   [0] 
  can1  080   [0] 
  can1  0F1   [8]  0B 05 0D 00 9A FF F9 FE
  can1  0F9   [8]  0B F9 52 05 EE F5 20 01
  can1  0F2   [8]  29 08 8B 02 17 00 00 00
  can1  0FA   [8]  11 01 62 1B 70 00 00 00
  can1  080   [0] 
  can1  080   [0] 
  can1  742   [1]  00
  can1  0F1   [8]  0B 05 0A 00 9E FF F9 FE
  can1  0F9   [8]  0B F9 65 05 EE F5 23 01
  can1  0F2   [8]  1A 08 85 02 2A 00 00 00
  can1  0FA   [8]  10 01 5A 1B 81 00 00 00
  can1  080   [0] 
  can1  080   [0] 
  can1  0F1   [8]  0B 05 09 00 AC FF EE FE
  can1  0F9   [8]  0B F9 70 05 F7 F5 11 01
  can1  0F2   [8]  2B 08 6F 02 2A 00 00 00
  can1  0FA   [8]  1F 01 3F 1B 87 00 00 00
  can1  080   [0] 
  can1  080   [0] 
  can1  0F1   [8]  0B 05 07 00 8E FF E8 FD
  can1  0F9   [8]  0B F9 5F 05 EC F5 16 01
  can1  0F2   [8]  FA 08 75 02 04 00 00 00
  can1  0FA   [8]  00 01 62 1B 77 00 00 00
  can1  080   [0] 
  can1  080   [0] 
  can1  0F1   [8]  0B 05 15 00 A9 FF FC FE
  can1  0F9   [8]  0B F9 65 05 F9 F5 28 01
  can1  0F2   [8]  22 08 8B 02 27 00 00 00
  can1  0FA   [8]  04 01 6F 1B 7A 00 00 00
  can1  080   [0] 
  can1  080   [0] 
  can1  0F1   [8]  0B 04 FF 00 A5 FF F4 FE
  can1  0F9   [8]  0B F9 63 05 E5 F5 1B 01
  can1  0F2   [8]  2C 08 99 02 2B 00 00 00
  can1  080   [0] 
  can1  0FA   [8]  05 01 6A 1B 71 00 00 00
  can1  080   [0] 
  can1  0F1   [8]  0B 04 EE 00 87 FF F9 FE
  can1  0F9   [8]  0B F9 63 05 DF F5 19 01
  can1  0F2   [8]  1E 08 95 01 E9 00 00 00
  can1  0FA   [8]  06 01 67 1B 67 00 00 00
  can1  080   [0] 
  can1  080   [0] 
  can1  0F1   [8]  0B 05 08 00 9A FF DC FE
  can1  0F9   [8]  0B F9 56 05 EF F5 32 01
  can1  0F2   [8]  33 08 87 02 32 00 00 00
  can1  0FA   [8]  04 01 5B 1B 5F 00 00 00
  can1  080   [0] 
  can1  080   [0] 
  can1  0F1   [8]  0B 05 13 00 91 FF EC FE
  can1  0F9   [8]  0B F9 4F 05 E9 F5 0B 00
  can1  0F2   [8]  22 08 90 02 23 00 00 00
  can1  0FA   [8]  F4 01 6D 1B 78 00 00 00
  can1  080   [0] 
  can1  080   [0] 
  can1  0F1   [8]  0B 05 0C 00 98 FF EB FE
  can1  0F9   [8]  0B F9 61 05 F2 F5 2B 01
  can1  0F2   [8]  13 08 6A 02 27 00 00 00
  can1  0FA   [8]  0B 01 75 1B 76 00 00 00
  can1  080   [0] 
  can1  080   [0] 
  can1  0F1   [8]  0B 05 1C 00 C1 FF F6 FE
  can1  0F9   [8]  0B F9 6E 05 E1 F5 19 01
  can1  0F2   [8]  11 08 6F 02 42 00 00 00
  can1  0FA   [8]  01 01 60 1B 48 00 00 00
  can1  080   [0] 
  can1  080   [0] 
  can1  0F1   [8]  0B 05 0B 00 86 00 00 FE
  can1  0F9   [8]  0B F9 60 05 F2 F5 28 01
  can1  0F2   [8]  16 08 7E 02 2E 00 00 00
  can1  0FA   [8]  0B 01 61 1B 77 00 00 00
  can1  080   [0] 
  can1  080   [0] 
  can1  0F1   [8]  0B 05 13 00 9C FF EC FE
  can1  0F9   [8]  0B F9 54 05 E5 F5 1B 01
  can1  0F2   [8]  2E 08 80 02 49 00 00 00
  can1  0FA   [8]  01 01 62 1B 78 00 00 00
  can1  080   [0] 
  can1  080   [0] 
  can1  0F1   [8]  0B 05 20 00 A5 FF F4 FE
  can1  0F9   [8]  0B F9 60 05 FB F5 20 01
  can1  0F2   [8]  2D 08 8B 02 17 00 00 00
  can1  0FA   [8]  0E 01 79 1B 83 00 00 00
  can1  080   [0] 
  can1  080   [0] 
  can1  0F1   [8]  0B 05 18 00 7E FF FB FE
  can1  0F9   [8]  0B F9 79 05 DA F5 19 00
  can1  0F2   [8]  1F 08 88 02 2E 00 00 00
  can1  0FA   [8]  F9 01 60 1B 67 00 00 00
  can1  080   [0] 
  can1  080   [0] 
  can1  0F1   [8]  0B 05 15 00 B8 FF EF FE
  can1  0F9   [8]  0B F9 68 05 E5 F5 1E 01
  can1  0F2   [8]  2D 08 8C 02 32 00 00 00
  can1  0FA   [8]  10 01 49 1B 63 00 00 00
  can1  080   [0] 
  can1  080   [0] 
  can1  0F1   [8]  0B 05 06 00 AC FF F1 FE
  can1  0F9   [8]  0B F9 60 05 EE F5 1E 01
  can1  0F2   [8]  23 08 83 02 23 00 00 00
  can1  0FA   [8]  0A 01 53 1B 88 00 00 00
  can1  080   [0] 
  can1  080   [0] 
  can1  0F1   [8]  0B 04 F5 00 73 FF FB FE
  can1  0F9   [8]  0B F9 63 05 EB F5 28 00
  can1  0F2   [8]  13 08 80 01 F8 00 00 00
  can1  0FA   [8]  FF 01 5E 1B 85 00 00 00
  can1  080   [0] 
  can1  080   [0] 
  can1  0F1   [8]  0B 05 15 00 A8 FF F4 FE
  can1  0F9   [8]  0B F9 59 05 FE F5 25 01
  can1  0F2   [8]  29 08 88 02 1B 00 00 00
  can1  0FA   [8]  0F 01 66 1B 79 00 00 00
  can1  080   [0] 
  can1  080   [0] 
  can1  0F1   [8]  0B 05 06 00 A0 00 00 FE
  can1  0F9   [8]  0B F9 71 05 E0 F5 2E 00
  can1  0F2   [8]  3A 08 9B 02 08 00 00 00
  can1  0FA   [8]  FD 01 5F 1B 74 00 00 00
  can1  080   [0] 
  can1  080   [0] 
  can1  0F1   [8]  0B 05 0F 00 A6 FF E1 FE
  can1  0F9   [8]  0B F9 6A 05 FF F5 20 01
  can1  0F2   [8]  1B 08 84 02 1B 00 00 00
  can1  0FA   [8]  06 01 4F 1B 76 00 00 00
  can1  080   [0] 
  can1  080   [0] 
  can1  0F1   [8]  0B 05 0F 00 B1 FF F0 FE
  can1  0F9   [8]  0B F9 5C 05 EB F5 1B 01
  can1  0F2   [8]  2D 08 A6 02 46 00 00 00
  can1  0FA   [8]  29 01 53 1B 8E 00 00 00
  can1  080   [0] 
  can1  080   [0] 
  can1  0F1   [8]  0B 04 E3 00 80 00 05 FE
  can1  0F9   [8]  0B F9 57 05 DB F5 26 01
  can1  0F2   [8]  1E 08 A5 01 F4 00 00 00
  can1  0FA   [8]  0B 01 72 1B 75 00 00 00
  can1  080   [0] 
  can1  080   [0] 
  can1  0F1   [8]  0B 05 1A 00 AB FF F9 FE
  can1  0F9   [8]  0B F9 66 05 DE F5 0E 00
  can1  0F2   [8]  13 08 91 02 2F 00 00 00
  can1  0FA   [8]  D9 01 48 1B 72 00 00 00
  can1  080   [0] 
  can1  080   [0] 
  can1  0F1   [8]  0B 05 07 00 AE FF F7 FE
  can1  0F9   [8]  0B F9 64 05 E9 F5 2B 01
  can1  0F2   [8]  23 08 98 02 3A 00 00 00
  can1  0FA   [8]  18 01 6A 1B 98 00 00 00
  can1  080   [0] 
  can1  080   [0] 
  can1  0F1   [8]  0B 05 0E 00 BB FF F2 FE
  can1  0F9   [8]  0B F9 6D 05 F9 F5 23 01
  can1  0F2   [8]  33 08 84 02 55 00 00 00
  can1  0FA   [8]  08 01 4F 1B 7A 00 00 00
  can1  080   [0] 
  can1  080   [0] 
  can1  0F1   [8]  0B 04 EE 00 9E FF EF FE
  can1  0F9   [8]  0B F9 56 05 F2 F5 20 01
  can1  0F2   [8]  22 08 90 02 23 00 00 00
  can1  0FA   [8]  09 01 70 1B 4E 00 00 00
  can1  080   [0] 
  can1  764   [1]  05
  can1  080   [0] 
  can1  0F1   [8]  0B 05 15 00 9A FF EC FE
  can1  0F9   [8]  0B F9 60 05 E7 F5 0C 01
  can1  0F2   [8]  25 08 89 02 04 00 00 00
  can1  0FA   [8]  0A 01 56 1B 88 00 00 00
  can1  080   [0] 
  can1  080   [0] 
  can1  0F1   [8]  0B 05 19 00 A9 FF F4 FE
  can1  0F9   [8]  0B F9 74 05 EF F5 26 01
  can1  0F2   [8]  24 08 83 02 23 00 00 00
  can1  0FA   [8]  0C 01 60 1B 65 00 00 00
  can1  080   [0] 
  can1  080   [0] 
  can1  0F1   [8]  0B 05 06 00 A8 00 08 FE
  can1  0F9   [8]  0B F9 73 05 E5 F5 16 01
  can1  0F2   [8]  1D 08 9F 02 08 00 00 00
  can1  0FA   [8]  13 01 70 1B 69 00 00 00
  can1  080   [0] 
  can1  080   [0] 
  can1  0F1   [8]  0B 05 0A 00 9E FF F7 FE
  can1  0F9   [8]  0B F9 48 05 E4 F5 1E 01
  can1  0F2   [8]  3F 08 93 02 36 00 00 00
  can1  0FA   [8]  0B 01 63 1B 78 00 00 00
  can1  080   [0] 
  can1  080   [0] 
  can1  0F1   [8]  0B 05 18 00 AE FF EC FE
  can1  0F9   [8]  0B F9 59 05 EE F5 06 01
  can1  0F2   [8]  22 08 91 02 1F 00 00 00
  can1  0FA   [8]  17 01 50 1B 62 00 00 00
  can1  080   [0] 
  can1  080   [0] 
  can1  0F1   [8]  0B 05 1C 00 B9 FF F4 FE
  can1  0F9   [8]  0B F9 5E 05 D8 F5 21 01
  can1  0F2   [8]  1E 08 72 02 2B 00 00 00
  can1  0FA   [8]  01 01 5D 1B 78 00 00 00
  can1  080   [0] 
  can1  080   [0] 
  can1  0F1   [8]  0B 05 0B 00 85 FF F0 FE
  can1  0F9   [8]  0B F9 5C 06 06 F5 13 01
  can1  0F2   [8]  22 08 7A 02 22 00 00 00
  can1  0FA   [8]  00 01 50 1B 5E 00 00 00
  can1  080   [0] 
  can1  080   [0] 
  can1  0F1   [8]  0B 05 0B 00 96 FF F4 FE
  can1  0F9   [8]  0B F9 5E 05 E8 F5 1B 01
  can1  0F2   [8]  23 08 92 02 1F 00 00 00
  can1  0FA   [8]  0D 01 62 1B 66 00 00 00
  can1  080   [0] 
  can1  080   [0] 
  can1  0F1   [8]  0B 05 09 00 B7 FF D5 FE
  can1  0F9   [8]  0B F9 6E 05 F6 F5 28 01
  can1  0F2   [8]  30 08 96 02 32 00 00 00
  can1  0FA   [8]  0E 01 70 1B 5E 00 00 00
  can1  080   [0] 
  can1  080   [0] 
  can1  0F1   [8]  0B 05 05 00 9C FF E9 FE
  can1  0F9   [8]  0B F9 54 05 EF F5 26 01
  can1  0F2   [8]  04 08 93 02 1F 00 00 00
  can1  0FA   [8]  1C 01 56 1B 8B 00 00 00
  can1  080   [0] 
  can1  080   [0] 
  can1  0F1   [8]  0B 05 15 00 BE FF ED FE
  can1  0F9   [8]  0B F9 72 05 F2 F5 1E 01
  can1  0F2   [8]  2E 08 88 02 27 00 00 00
  can1  080   [0] 
  can1  0FA   [8]  14 01 58 1B 68 00 00 00
  can1  080   [0] 
  can1  0F1   [8]  0B 05 01 00 9E FF F1 FE
  can1  0F9   [8]  0B F9 61 05 D7 F5 0C 01
  can1  0F2   [8]  22 08 7E 02 32 00 00 00
  can1  080   [0] 
  can1  0FA   [8]  15 01 82 1B 6E 00 00 00
  can1  080   [0] 
  can1  0F1   [8]  0B 04 F3 00 6E FF D6 FE
  can1  0F9   [8]  0B F9 79 05 FA F5 38 01
  can1  0F2   [8]  2D 08 83 02 16 00 00 00
  can1  080   [0] 
  can1  0FA   [8]  03 01 53 1B 65 00 00 00
  can1  080   [0] 
  can1  0F1   [8]  0B 05 28 00 A3 FF E6 FE
  can1  0F9   [8]  0B F9 5F 05 EC F5 16 01
  can1  0F2   [8]  1A 08 73 02 1F 00 00 00
  can1  080   [0] 
  can1  0FA   [8]  00 01 62 1B 77 00 00 00
  can1  080   [0] 
  can1  0F1   [8]  0B 05 1F 00 B5 00 02 FE
  can1  0F9   [8]  0B F9 60 05 EB F5 20 01
  can1  0F2   [8]  0F 08 7D 02 18 00 00 00
  can1  0FA   [8]  02 01 69 1B 81 00 00 00
  can1  080   [0] 
  can1  080   [0] 
  can1  0F1   [8]  0B 04 FD 00 85 00 00 FE
  can1  0F9   [8]  0B F9 5B 05 DE F5 1E 01
  can1  0F2   [8]  11 08 96 02 0F 00 00 00
  can1  0FA   [8]  05 01 5B 1B 7F 00 00 00
  can1  765   [1]  05
  can1  080   [0] 
  can1  080   [0] 
  can1  0F1   [8]  0B 05 18 00 C8 00 0B FE
  can1  0F9   [8]  0B F9 5C 05 EF F5 06 01
  can1  0F2   [8]  01 08 7D 02 2F 00 00 00
  can1  0FA   [8]  05 01 86 1B 63 00 00 00
  can1  080   [0] 
  can1  080   [0] 
  can1  0F1   [8]  0B 04 F5 00 A2 FF F7 FE
  can1  0F9   [8]  0B F9 5F 05 FB F5 16 01
  can1  0F2   [8]  1A 08 9F 02 23 00 00 00
  can1  0FA   [8]  02 01 69 1B 84 00 00 00
  can1  080   [0] 
  can1  080   [0] 
  can1  0F1   [8]  0B 05 0A 00 A5 FF EC FE
  can1  0F9   [8]  0B F9 73 05 F1 F5 1E 01
  can1  0F2   [8]  36 08 80 02 1F 00 00 00
  can1  0FA   [8]  23 01 65 1B 7D 00 00 00
  can1  080   [0] 
  can1  080   [0] 
  can1  0F1   [8]  0B 04 FD 00 8F FF F3 FE
  can1  0F9   [8]  0B F9 50 05 F1 F5 2B 01
  can1  0F2   [8]  2C 08 7E 02 08 00 00 00
  can1  0FA   [8]  0D 01 54 1B 69 00 00 00
  can1  080   [0] 
  can1  080   [0] 
  can1  0F1   [8]  0B 05 0C 00 9B FF EE FE
  can1  0F9   [8]  0B F9 61 05 F2 F5 38 00
  can1  0F2   [8]  1C 08 85 02 0C 00 00 00
  can1  0FA   [8]  FD 01 6C 1B 8B 00 00 00
  can1  080   [0] 
  can1  080   [0] 
  can1  0F1   [8]  0B 05 04 00 B0 FF F1 FE
  can1  0F9   [8]  0B F9 54 05 EB F5 19 01
  can1  0F2   [8]  24 08 84 02 14 00 00 00
  can1  0FA   [8]  05 01 5F 1B 6D 00 00 00
  can1  080   [0] 
  can1  080   [0] 
  can1  0F1   [8]  0B 04 F5 00 B2 FF F2 FE
  can1  0F9   [8]  0B F9 60 05 F1 F5 23 01
  can1  0F2   [8]  30 08 89 02 27 00 00 00
  can1  0FA   [8]  02 01 66 1B 8B 00 00 00
  can1  080   [0] 
  can1  080   [0] 
  can1  0F1   [8]  0B 05 18 00 AC FF F2 FE
  can1  0F9   [8]  0B F9 63 05 E5 F5 26 01
  can1  0F2   [8]  38 08 92 02 2B 00 00 00
  can1  0FA   [8]  10 01 62 1B 66 00 00 00
  can1  080   [0] 
  can1  080   [0] 
  can1  742   [1]  00
  can1  0F1   [8]  0B 04 EB 00 99 FF E1 FE
  can1  0F9   [8]  0B F9 67 05 D0 F5 30 00
  can1  0F2   [8]  2A 08 8C 02 08 00 00 00
  can1  0FA   [8]  F2 01 60 1B 5E 00 00 00
  can1  080   [0] 
  can1  080   [0] 
  can1  0F1   [8]  0B 05 0D 00 CB FF EF FE
  can1  0F9   [8]  0B F9 60 05 F1 F4 FE 01
  can1  0F2   [8]  37 08 79 02 61 00 00 00
  can1  0FA   [8]  05 01 6C 1B 8B 00 00 00
  can1  080   [0] 
  can1  080   [0] 
  can1  0F1   [8]  0B 05 09 00 BE FF E7 FE
  can1  0F9   [8]  0B F9 6B 05 F3 F5 1B 00
  can1  0F2   [8]  08 08 7C 02 36 00 00 00
  can1  0FA   [8]  FD 01 5F 1B 77 00 00 00
  can1  080   [0] 
  can1  080   [0] 
  can1  0F1   [8]  0B 04 F3 00 B8 FF EF FE
  can1  0F9   [8]  0B F9 77 05 E2 F5 33 01
  can1  0F2   [8]  23 08 8A 02 2F 00 00 00
  can1  0FA   [8]  07 01 59 1B 88 00 00 00
  can1  080   [0] 
  can1  080   [0] 
  can1  0F1   [8]  0B 05 2C 00 B2 FF F3 FE
  can1  0F9   [8]  0B F9 68 05 EC F5 20 00
  can1  0F2   [8]  23 08 6C 02 3E 00 00 00
  can1  0FA   [8]  FF 01 75 1B 7E 00 00 00
  can1  080   [0] 
  can1  080   [0] 
  can1  0F1   [8]  0B 05 08 00 94 FF E3 FE
  can1  0F9   [8]  0B F9 69 05 E0 F5 18 00
  can1  0F2   [8]  14 08 7E 02 1B 00 00 00
  can1  0FA   [8]  EF 01 61 1B 82 00 00 00
  can1  080   [0] 
  can1  080   [0] 
  can1  0F1   [8]  0B 05 0B 00 A9 FF E9 FE
  can1  0F9   [8]  0B F9 61 05 E8 F5 20 01
  can1  0F2   [8]  26 08 6E 02 23 00 00 00
  can1  0FA   [8]  02 01 69 1B 88 00 00 00
  can1  080   [0] 
  can1  080   [0] 
  can1  0F1   [8]  0B 05 2A 00 B0 FF FC FE
  can1  0F9   [8]  0B F9 6D 05 EE F4 FC 01
  can1  0F2   [8]  2A 08 84 02 1F 00 00 00
  can1  0FA   [8]  17 01 6D 1B 7E 00 00 00
  can1  080   [0] 
  can1  080   [0] 
  can1  0F1   [8]  0B 04 EC 00 66 FF F3 FE
  can1  0F9   [8]  0B F9 50 05 DD F5 0E 01
  can1  0F2   [8]  14 08 8E 01 CE 00 00 00
  can1  0FA   [8]  0F 01 66 1B 75 00 00 00
  can1  080   [0] 
  can1  080   [0] 
  can1  0F1   [8]  0B 05 05 00 B3 FF EF FE
  can1  0F9   [8]  0B F9 6D 05 EA F5 20 00
  can1  0F2   [8]  3B 08 84 02 2E 00 00 00
  can1  0FA   [8]  F0 01 67 1B 6A 00 00 00
  can1  080   [0] 
  can1  080   [0] 
  can1  0F1   [8]  0B 04 EC 00 71 FF F0 FE
  can1  0F9   [8]  0B F9 5B 05 F8 F5 16 00
  can1  0F2   [8]  30 08 81 02 00 00 00 00
  can1  0FA   [8]  FA 01 53 1B 88 00 00 00
  can1  080   [0] 
  can1  080   [0] 
  can1  0F1   [8]  0B 05 12 00 B6 FF DF FE
  can1  0F9   [8]  0B F9 54 05 D7 F5 2B 00
  can1  0F2   [8]  0B 08 7E 02 3A 00 00 00
  can1  0FA   [8]  FD 01 69 1B 97 00 00 00
  can1  080   [0] 
  can1  080   [0] 
  can1  0F1   [8]  0B 04 FC 00 AF FF F4 FE
  can1  0F9   [8]  0B F9 60 05 FE F5 23 01
  can1  0F2   [8]  36 08 90 02 1B 00 00 00
  can1  0FA   [8]  18 01 5F 1B 6B 00 00 00
  can1  080   [0] 
  can1  080   [0] 
  can1  0F1   [8]  0B 05 07 00 9C FF F1 FE
  can1  0F9   [8]  0B F9 63 05 E1 F5 21 01
  can1  0F2   [8]  0F 08 7C 02 26 00 00 00
  can1  0FA   [8]  13 01 4B 1B 6D 00 00 00
  can1  080   [0] 
  can1  080   [0] 
  can1  0F1   [8]  0B 05 13 00 B5 FF FC FE
  can1  0F9   [8]  0B F9 61 06 06 F5 10 00
  can1  0F2   [8]  14 08 84 02 2F 00 00 00
  can1  0FA   [8]  FE 01 60 1B 80 00 00 00
  can1  080   [0] 
  can1  080   [0] 
  can1  0F1   [8]  0B 04 FC 00 9B FF DF FE
  can1  0F9   [8]  0B F9 4F 05 EE F5 16 01
  can1  0F2   [8]  15 08 91 02 32 00 00 00
  can1  0FA   [8]  06 01 6A 1B 77 00 00 00
  can1  080   [0] 
  can1  080   [0] 
  can1  0F1   [8]  0B 05 16 00 AE FF F6 FE
  can1  0F9   [8]  0B F9 64 05 F9 F5 2D 01
  can1  0F2   [8]  1A 08 85 02 2B 00 00 00
  can1  0FA   [8]  09 01 60 1B 51 00 00 00
  can1  080   [0] 
  can1  080   [0] 
  can1  0F1   [8]  0B 05 2D 00 99 FF ED FE
  can1  0F9   [8]  0B F9 68 05 DF F5 23 01
  can1  0F2   [8]  10 08 62 02 41 00 00 00
  can1  0FA   [8]  03 01 51 1B 6D 00 00 00
  can1  080   [0] 
  can1  764   [1]  05
  can1  080   [0] 
  can1  0F1   [8]  0B 05 1D 00 A9 FF E1 FE
  can1  0F9   [8]  0B F9 6E 05 E1 F5 0E 01
  can1  0F2   [8]  1D 08 7A 02 13 00 00 00
  can1  0FA   [8]  09 01 80 1B 7E 00 00 00
  can1  080   [0] 
  can1  080   [0] 
  can1  0F1   [8]  0B 05 0C 00 91 FF F1 FE
  can1  0F9   [8]  0B F9 5C 05 F5 F5 18 00
  can1  0F2   [8]  24 08 99 02 1F 00 00 00
  can1  0FA   [8]  FF 01 4D 1B 7A 00 00 00
  can1  080   [0] 
  can1  080   [0] 
  can1  0F1   [8]  0B 05 10 00 99 FF F6 FE
  can1  0F9   [8]  0B F9 4F 05 EB F5 1B 01
  can1  0F2   [8]  30 08 7E 02 13 00 00 00
  can1  0FA   [8]  05 01 56 1B 6A 00 00 00
  can1  080   [0] 
  can1  080   [0] 
  can1  0F1   [8]  0B 05 06 00 A5 FF F7 FE
  can1  0F9   [8]  0B F9 4F 05 E1 F5 20 01
  can1  0F2   [8]  31 08 87 02 23 00 00 00
  can1  0FA   [8]  00 01 6D 1B 82 00 00 00
  can1  080   [0] 
  can1  080   [0] 
  can1  0F1   [8]  0B 05 0B 00 97 FF EE FE
  can1  0F9   [8]  0B F9 59 05 EB F5 16 01
  can1  0F2   [8]  21 08 8A 02 14 00 00 00
  can1  0FA   [8]  02 01 75 1B 7B 00 00 00
  can1  080   [0] 
  can1  080   [0] 
  can1  0F1   [8]  0B 05 0E 00 9B FF EC FE
  can1  0F9   [8]  0B F9 5E 05 EE F5 28 00
  can1  0F2   [8]  2A 08 75 02 41 00 00 00
  can1  0FA   [8]  FE 01 65 1B 84 00 00 00
  can1  080   [0] 
  can1  080   [0] 
  can1  0F1   [8]  0B 05 11 00 A5 FF FE FE
  can1  0F9   [8]  0B F9 5F 05 F6 F5 25 00
  can1  0F2   [8]  06 08 86 02 36 00 00 00
  can1  0FA   [8]  FF 01 6F 1B 70 00 00 00
  can1  080   [0] 
  can1  080   [0] 
  can1  0F1   [8]  0B 04 F8 00 71 00 11 FD
  can1  0F9   [8]  0B F9 5D 05 D4 F5 26 01
  can1  0F2   [8]  FE 08 8D 01 FC 00 00 00
  can1  0FA   [8]  12 01 68 1B 71 00 00 00
  can1  080   [0] 
  can1  080   [0] 
  can1  0F1   [8]  0B 05 15 00 AD FF E5 FE
  can1  0F9   [8]  0B F9 69 05 E9 F5 13 00
  can1  0F2   [8]  30 08 A6 02 3A 00 00 00
  can1  0FA   [8]  FA 01 66 1B 8F 00 00 00
  can1  080   [0] 
  can1  080   [0] 
  can1  0F1   [8]  0B 05 16 00 BA FF FC FE
  can1  0F9   [8]  0B F9 62 05 EF F5 1B 01
  can1  0F2   [8]  0C 08 93 02 33 00 00 00
  can1  0FA   [8]  00 01 6C 1B 7E 00 00 00
  can1  080   [0] 
  can1  080   [0] 
  can1  0F1   [8]  0B 05 0F 00 90 00 00 FE
  can1  0F9   [8]  0B F9 64 05 DF F5 26 01
  can1  0F2   [8]  2D 08 89 02 1B 00 00 00
  can1  0FA   [8]  01 01 6D 1B 85 00 00 00
  can1  080   [0] 
  can1  080   [0] 
  can1  0F1   [8]  0B 05 17 00 AC FF EF FE
  can1  0F9   [8]  0B F9 5C 05 DF F5 26 00
  can1  0F2   [8]  34 08 7C 02 13 00 00 00
  can1  0FA   [8]  F5 01 6C 1B 75 00 00 00
  can1  080   [0] 
  can1  080   [0] 
  can1  0F1   [8]  0B 05 16 00 99 FF EC FE
  can1  0F9   [8]  0B F9 6B 05 F3 F5 16 01
  can1  0F2   [8]  35 08 96 02 1B 00 00 00
  can1  0FA   [8]  01 01 60 1B 77 00 00 00
  can1  080   [0] 
  can1  080   [0] 
  can1  0F1   [8]  0B 05 12 00 B4 FF EC FE
  can1  0F9   [8]  0B F9 74 06 02 F5 23 01
  can1  0F2   [8]  1C 08 7B 02 17 00 00 00
  can1  0FA   [8]  15 01 50 1B 6E 00 00 00
  can1  080   [0] 
  can1  080   [0] 
  can1  0F1   [8]  0B 05 27 00 A6 00 00 FE
  can1  0F9   [8]  0B F9 60 05 F1 F5 23 01
  can1  0F2   [8]  2C 08 85 02 32 00 00 00
  can1  0FA   [8]  04 01 5F 1B 8B 00 00 00
  can1  080   [0] 
  can1  080   [0] 
  can1  0F1   [8]  0B 04 FA 00 B3 FF FA FE
  can1  0F9   [8]  0B F9 69 05 E3 F5 26 00
  can1  0F2   [8]  34 08 94 02 2F 00 00 00
  can1  0FA   [8]  FB 01 6E 1B 67 00 00 00
  can1  080   [0] 
  can1  080   [0] 
  can1  0F1   [8]  0B 05 16 00 B7 FF EA FE
  can1  0F9   [8]  0B F9 5D 05 EE F5 19 01
  can1  0F2   [8]  39 08 99 02 27 00 00 00
  can1  0FA   [8]  06 01 5D 1B 8F 00 00 00
  can1  080   [0] 
  can1  080   [0] 
  can1  0F1   [8]  0B 04 EE 00 92 FF F9 FE
  can1  0F9   [8]  0B F9 65 05 F7 F5 28 00
  can1  0F2   [8]  25 08 80 02 04 00 00 00
  can1  0FA   [8]  F4 01 62 1B 6D 00 00 00
  can1  080   [0] 
  can1  080   [0] 
  can1  0F1   [8]  0B 05 29 00 AB FF EE FE
  can1  0F9   [8]  0B F9 72 05 D6 F5 1E 00
  can1  0F2   [8]  2D 08 7A 02 42 00 00 00
  can1  0FA   [8]  F3 01 4F 1B 7C 00 00 00
  can1  080   [0] 
  can1  080   [0] 
  can1  765   [1]  05
  can1  0F1   [8]  0B 05 0D 00 8B FF F9 FE
  can1  0F9   [8]  0B F9 4C 05 F8 F5 0E 00
  can1  0F2   [8]  32 08 8E 02 2E 00 00 00
  can1  0FA   [8]  F5 01 52 1B 85 00 00 00
  can1  080   [0] 
  can1  080   [0] 
  can1  0F1   [8]  0B 05 0C 00 A7 FF E9 FE
  can1  0F9   [8]  0B F9 44 05 D2 F5 14 00
  can1  0F2   [8]  13 08 74 02 3E 00 00 00
  can1  0FA   [8]  F3 01 5D 1B 6C 00 00 00
  can1  080   [0] 
  can1  080   [0] 
  can1  0F1   [8]  0B 05 12 00 AE FF F6 FE
  can1  0F9   [8]  0B F9 6A 05 ED F5 06 00
  can1  0F2   [8]  1A 08 86 02 2F 00 00 00
  can1  0FA   [8]  F6 01 57 1B 77 00 00 00
  can1  080   [0] 
  can1  080   [0] 
  can1  0F1   [8]  0B 05 07 00 9E FF F2 FE
  can1  0F9   [8]  0B F9 4D 05 FB F5 09 01
  can1  0F2   [8]  2D 08 9E 02 2E 00 00 00
  can1  0FA   [8]  15 01 7A 1B 54 00 00 00
  can1  080   [0] 
  can1  080   [0] 
  can1  0F1   [8]  0B 05 12 00 A6 FF EC FE
  can1  0F9   [8]  0B F9 67 05 F2 F5 1B 01
  can1  0F2   [8]  35 08 85 02 3A 00 00 00
  can1  0FA   [8]  0F 01 60 1B 73 00 00 00
  can1  080   [0] 
  can1  080   [0] 
  can1  0F1   [8]  0B 05 15 00 9C FF FC FE
  can1  0F9   [8]  0B F9 4F 05 E8 F5 26 01
  can1  0F2   [8]  1E 08 91 02 3D 00 00 00
  can1  0FA   [8]  04 01 6A 1B 6D 00 00 00
  can1  080   [0] 
  can1  080   [0] 
  can1  0F1   [8]  0B 04 EE 00 8E FF FC FE
  can1  0F9   [8]  0B F9 5E 05 EC F5 13 00
  can1  0F2   [8]  26 08 9D 02 00 00 00 00
  can1  0FA   [8]  EF 01 4E 1B 82 00 00 00
  can1  080   [0] 
  can1  080   [0] 
  can1  0F1   [8]  0B 05 10 00 AE FF E7 FE
  can1  0F9   [8]  0B F9 58 05 F2 F5 13 00
  can1  0F2   [8]  23 08 96 02 27 00 00 00
  can1  0FA   [8]  F9 01 5E 1B 8F 00 00 00
  can1  080   [0] 
  can1  080   [0] 
  can1  0F1   [8]  0B 05 13 00 94 FF EE FE
  can1  0F9   [8]  0B F9 55 05 E9 F5 20 00
  can1  0F2   [8]  12 08 74 02 1B 00 00 00
  can1  0FA   [8]  FA 01 56 1B 60 00 00 00
  can1  080   [0] 
  can1  080   [0] 
  can1  0F1   [8]  0B 04 EF 00 96 00 0A FD
  can1  0F9   [8]  0B F9 43 05 E9 F5 18 00
  can1  0F2   [8]  EB 08 7E 02 10 00 00 00
  can1  080   [0] 
  can1  0FA   [8]  F6 01 8C 1B 6A 00 00 00
  can1  080   [0] 
  can1  0F1   [8]  0B 05 09 00 9A FF F1 FE
  can1  0F9   [8]  0B F9 61 05 D6 F5 0F 01
  can1  0F2   [8]  28 08 93 02 1B 00 00 00
  can1  080   [0] 
  can1  0FA   [8]  18 01 4C 1B 86 00 00 00
  can1  080   [0] 
  can1  0F1   [8]  0B 05 05 00 AC FF EC FE
  can1  0F9   [8]  0B F9 58 05 E5 F5 2D 00
  can1  0F2   [8]  22 08 75 02 18 00 00 00
  can1  0FA   [8]  FD 01 6A 1B 85 00 00 00
  can1  080   [0] 
  can1  080   [0] 
  can1  0F1   [8]  0B 05 05 00 9D FF F4 FE
  can1  0F9   [8]  0B F9 62 05 E4 F5 14 01
  can1  0F2   [8]  2E 08 83 02 2E 00 00 00
  can1  0FA   [8]  0E 01 5A 1B 85 00 00 00
  can1  080   [0] 
  can1  080   [0] 
  can1  742   [1]  00
  can1  0F1   [8]  0B 05 1D 00 AF FF FF FE
  can1  0F9   [8]  0B F9 4D 05 DD F5 19 01
  can1  0F2   [8]  3A 08 7F 02 14 00 00 00
  can1  0FA   [8]  05 01 72 1B 90 00 00 00
  can1  080   [0] 
  can1  080   [0] 
  can1  0F1   [8]  0B 05 1E 00 AD FF F1 FE
  can1  0F9   [8]  0B F9 56 05 E8 F5 20 01
  can1  0F2   [8]  38 08 71 02 3A 00 00 00
  can1  0FA   [8]  02 01 6C 1B 6A 00 00 00
  can1  080   [0] 
  can1  080   [0] 
  can1  0F1   [8]  0B 05 01 00 A6 FF E9 FE
  can1  0F9   [8]  0B F9 5E 05 E3 F5 20 00
  can1  0F2   [8]  1C 08 80 02 1B 00 00 00
  can1  0FA   [8]  EA 01 65 1B 86 00 00 00
  can1  080   [0] 
  can1  080   [0] 
  can1  0F1   [8]  0B 05 14 00 B7 FF F7 FE
  can1  0F9   [8]  0B F9 59 05 F5 F5 11 01
  can1  0F2   [8]  2B 08 7A 02 1B 00 00 00
  can1  0FA   [8]  15 01 53 1B 6C 00 00 00
  can1  080   [0] 
  can1  080   [0] 
  can1  0F1   [8]  0B 04 E6 00 6F FF EB FE
  can1  0F9   [8]  0B F9 68 05 E8 F5 20 00
  can1  0F2   [8]  02 08 7C 02 00 00 00 00
  can1  0FA   [8]  FD 01 63 1B 99 00 00 00
  can1  080   [0] 
  can1  080   [0] 
  can1  0F1   [8]  0B 05 02 00 A5 FF F7 FE
  can1  0F9   [8]  0B F9 48 05 D7 F5 21 01
  can1  0F2   [8]  2B 08 8A 02 27 00 00 00
  can1  0FA   [8]  01 01 62 1B 79 00 00 00
  can1  080   [0] 
  can1  080   [0] 
  can1  0F1   [8]  0B 05 08 00 9D FF F9 FE
  can1  0F9   [8]  0B F9 6D 05 EA F5 20 00
  can1  0F2   [8]  33 08 9C 02 17 00 00 00
  can1  0FA   [8]  EF 01 6D 1B 74 00 00 00
  can1  080   [0] 
  can1  080   [0] 
  can1  0F1   [8]  0B 05 1A 00 9F FF F8 FE
  can1  0F9   [8]  0B F9 51 05 F1 F5 2B 01
  can1  0F2   [8]  16 08 76 02 1B 00 00 00
  can1  0FA   [8]  0A 01 60 1B 7E 00 00 00
  can1  080   [0] 
  can1  080   [0] 
  can1  0F1   [8]  0B 05 1C 00 C0 FF E2 FE
  can1  0F9   [8]  0B F9 5B 05 FA F5 08 00
  can1  0F2   [8]  24 08 73 02 4D 00 00 00
  can1  0FA   [8]  F4 01 4B 1B 74 00 00 00
  can1  080   [0] 
  can1  080   [0] 
  can1  0F1   [8]  0B 05 0E 00 9D FF F9 FE
  can1  0F9   [8]  0B F9 4A 05 F7 F5 28 01
  can1  0F2   [8]  20 08 82 02 10 00 00 00
  can1  0FA   [8]  08 01 61 1B 81 00 00 00
  can1  080   [0] 
  can1  764   [1]  05
  can1  080   [0] 
  can1  0F1   [8]  0B 05 09 00 B2 FF DC FE
  can1  0F9   [8]  0B F9 53 05 EE F5 11 01
  can1  0F2   [8]  3C 08 72 02 1F 00 00 00
  can1  0FA   [8]  0B 01 63 1B 66 00 00 00
  can1  080   [0] 
  can1  080   [0] 
  can1  0F1   [8]  0B 04 FE 00 AC FF F7 FE
  can1  0F9   [8]  0B F9 54 05 EA F5 1E 01
  can1  0F2   [8]  32 08 8F 02 36 00 00 00
  can1  0FA   [8]  08 01 5C 1B 96 00 00 00
  can1  080   [0] 
  can1  080   [0] 
  can1  0F1   [8]  0B 05 02 00 72 FF FA FE
  can1  0F9   [8]  0B F9 59 05 DE F5 23 00
  can1  0F2   [8]  11 08 84 01 D6 00 00 00
  can1  0FA   [8]  F7 01 70 1B 90 00 00 00
  can1  080   [0] 
  can1  080   [0] 
  can1  0F1   [8]  0B 05 11 00 B0 FF EF FE
  can1  0F9   [8]  0B F9 5F 05 FF F5 18 01
  can1  0F2   [8]  27 08 88 02 2B 00 00 00
  can1  0FA   [8]  07 01 81 1B 7D 00 00 00
  can1  080   [0] 
  can1  080   [0] 
  can1  0F1   [8]  0B 05 25 00 9D 00 00 FE
  can1  0F9   [8]  0B F9 43 05 E2 F5 19 00
  can1  0F2   [8]  39 08 94 02 13 00 00 00
  can1  0FA   [8]  FE 01 5E 1B 6E 00 00 00
  can1  080   [0] 
  can1  080   [0] 
  can1  0F1   [8]  0B 05 18 00 A5 FF E7 FE
  can1  0F9   [8]  0B F9 6E 05 F3 F5 2A 00
  can1  0F2   [8]  24 08 87 02 51 00 00 00
  can1  0FA   [8]  F3 01 56 1B 84 00 00 00
  can1  080   [0] 
  can1  080   [0] 
  can1  0F1   [8]  0B 04 F5 00 91 FF F1 FE
  can1  0F9   [8]  0B F9 61 05 E9 F5 1E 01
  can1  0F2   [8]  1D 08 87 02 32 00 00 00
  can1  0FA   [8]  0D 01 57 1B 55 00 00 00
  can1  080   [0] 
  can1  080   [0] 
  can1  0F1   [8]  0B 05 13 00 8C FF D3 FE
  can1  0F9   [8]  0B F9 5E 05 E9 F5 30 00
  can1  0F2   [8]  2B 08 79 02 1B 00 00 00
  can1  0FA   [8]  F3 01 75 1B 8F 00 00 00
  can1  080   [0] 
  can1  080   [0] 
  can1  0F1   [8]  0B 05 14 00 9C FF F3 FE
  can1  0F9   [8]  0B F9 5F 05 ED F4 FF 01
  can1  0F2   [8]  0B 08 79 02 27 00 00 00
  can1  0FA   [8]  25 01 43 1B 73 00 00 00
  can1  080   [0] 
  can1  080   [0] 
  can1  0F1   [8]  0B 05 15 00 B3 FF FC FE
  can1  0F9   [8]  0B F9 5B 05 E8 F5 23 01
  can1  0F2   [8]  31 08 A6 02 18 00 00 00
  can1  0FA   [8]  09 01 76 1B 82 00 00 00
  can1  080   [0] 
  can1  080   [0] 
  can1  0F1   [8]  0B 05 12 00 94 FF F9 FE
  can1  0F9   [8]  0B F9 6D 05 F1 F5 19 01
  can1  0F2   [8]  24 08 9E 02 35 00 00 00
  can1  0FA   [8]  1C 01 46 1B 7A 00 00 00
  can1  080   [0] 
  can1  080   [0] 
  can1  0F1   [8]  0B 05 0F 00 B5 FF F7 FE
  can1  0F9   [8]  0B F9 57 05 EB F5 1B 01
  can1  0F2   [8]  21 08 8B 02 32 00 00 00
  can1  0FA   [8]  00 01 50 1B 8F 00 00 00
  can1  080   [0] 
  can1  080   [0] 
  can1  0F1   [8]  0B 04 FB 00 A5 FF DA FE
  can1  0F9   [8]  0B F9 5A 05 ED F5 16 01
  can1  0F2   [8]  1C 08 A1 02 17 00 00 00
  can1  0FA   [8]  2A 01 62 1B 58 00 00 00
  can1  080   [0] 
  can1  080   [0] 
  can1  0F1   [8]  0B 05 17 00 AF FF E4 FE
  can1  0F9   [8]  0B F9 54 05 EC F5 30 00
  can1  0F2   [8]  2A 08 88 02 59 00 00 00
  can1  0FA   [8]  EE 01 5A 1B 82 00 00 00
  can1  080   [0] 
  can1  080   [0] 
  can1  0F1   [8]  0B 04 FA 00 A5 FF EF FE
  can1  0F9   [8]  0B F9 6D 05 E6 F5 30 00
  can1  0F2   [8]  29 08 92 02 0C 00 00 00
  can1  0FA   [8]  F8 01 57 1B 8F 00 00 00
  can1  080   [0] 
  can1  080   [0] 
  can1  0F1   [8]  0B 05 00 00 8C 00 07 FE
  can1  0F9   [8]  0B F9 64 05 DA F5 13 00
  can1  0F2   [8]  20 08 90 02 17 00 00 00
  can1  0FA   [8]  F1 01 4B 1B 61 00 00 00
  can1  080   [0] 
  can1  080   [0] 
  can1  0F1   [8]  0B 05 27 00 B3 FF EE FE
  can1  0F9   [8]  0B F9 77 05 E4 F5 07 01
  can1  0F2   [8]  3C 08 76 02 0F 00 00 00
  can1  0FA   [8]  17 01 73 1B 81 00 00 00
  can1  080   [0] 
  can1  080   [0] 
  can1  0F1   [8]  0B 05 00 00 8D 00 02 FE
  can1  0F9   [8]  0B F9 77 05 EB F5 28 01
  can1  0F2   [8]  21 08 94 02 23 00 00 00
  can1  0FA   [8]  09 01 44 1B 99 00 00 00
  can1  080   [0] 
  can1  080   [0] 
  can1  0F1   [8]  0B 05 16 00 A6 FF EC FE
  can1  0F9   [8]  0B F9 62 05 EC F5 16 01
  can1  0F2   [8]  17 08 81 02 1F 00 00 00
  can1  0FA   [8]  06 01 7E 1B 6D 00 00 00
  can1  080   [0] 
  can1  080   [0] 
  can1  0F1   [8]  0B 05 03 00 B4 FF FC FE
  can1  0F9   [8]  0B F9 53 05 F4 F5 1E 01
  can1  0F2   [8]  2A 08 93 02 33 00 00 00
  can1  0FA   [8]  16 01 58 1B 6F 00 00 00
  can1  080   [0] 
  can1  080   [0] 
  can1  0F1   [8]  0B 05 01 00 A7 00 03 FE
  can1  0F9   [8]  0B F9 53 05 E2 F5 06 01
  can1  0F2   [8]  18 08 86 02 3E 00 00 00
  can1  0FA   [8]  00 01 3F 1B 75 00 00 00
  can1  080   [0] 
  can1  080   [0] 
  can1  0F1   [8]  0B 04 F1 00 95 FF DC FE
  can1  0F9   [8]  0B F9 4D 05 E5 F5 09 00
  can1  0F2   [8]  2C 08 88 02 07 00 00 00
  can1  0FA   [8]  EF 01 6D 1B 86 00 00 00
  can1  080   [0] 
  can1  080   [0] 
  can1  0F1   [8]  0B 05 02 00 A6 FF E9 FE
  can1  0F9   [8]  0B F9 6E 05 E9 F5 0C 00
  can1  0F2   [8]  04 08 82 02 10 00 00 00
  can1  0FA   [8]  FB 01 7D 1B 74 00 00 00
  can1  080   [0] 
  can1  765   [1]  05
  can1  080   [0] 
  can1  0F1   [8]  0B 04 F7 00 79 FF E9 FE
  can1  0F9   [8]  0B F9 50 05 F0 F4 FE 01
  can1  0F2   [8]  1B 08 93 01 ED 00 00 00
  can1  0FA   [8]  0B 01 8C 1B 85 00 00 00
  can1  080   [0] 
  can1  080   [0] 
  can1  0F1   [8]  0B 05 18 00 C2 FF FF FE
  can1  0F9   [8]  0B F9 52 05 FB F5 13 00
  can1  0F2   [8]  35 08 90 02 1F 00 00 00
  can1  0FA   [8]  F7 01 54 1B 8F 00 00 00
  can1  080   [0] 
  can1  080   [0] 
  can1  0F1   [8]  0B 05 04 00 A1 FF FE FE
  can1  0F9   [8]  0B F9 63 05 D7 F5 2B 01
  can1  0F2   [8]  29 08 89 01 FD 00 00 00
  can1  0FA   [8]  14 01 6A 1B 7B 00 00 00
  can1  080   [0] 
  can1  080   [0] 
  can1  0F1   [8]  0B 05 01 00 A0 FF FC FE
  can1  0F9   [8]  0B F9 65 05 E3 F5 23 00
  can1  0F2   [8]  3D 08 99 02 23 00 00 00
  can1  0FA   [8]  F1 01 6F 1B 8C 00 00 00
  can1  080   [0] 
  can1  080   [0] 
  can1  0F1   [8]  0B 05 1C 00 A0 FF E7 FE
  can1  0F9   [8]  0B F9 73 05 D7 F5 3A 00
  can1  0F2   [8]  18 08 9C 02 3E 00 00 00
  can1  0FA   [8]  E4 01 64 1B 72 00 00 00
  can1  080   [0] 
  can1  080   [0] 
  can1  0F1   [8]  0B 05 1B 00 9C FF F6 FE
  can1  0F9   [8]  0B F9 52 05 DB F5 19 01
  can1  0F2   [8]  26 08 72 02 41 00 00 00
  can1  0FA   [8]  00 01 66 1B 86 00 00 00
  can1  080   [0] 
  can1  080   [0] 
  can1  0F1   [8]  0B 05 01 00 AE FF EF FE
  can1  0F9   [8]  0B F9 4D 05 DE F5 26 00
  can1  0F2   [8]  21 08 87 02 3E 00 00 00
  can1  0FA   [8]  FD 01 67 1B 7C 00 00 00
  can1  080   [0] 
  can1  080   [0] 
  can1  0F1   [8]  0B 05 15 00 AE 00 00 FE
  can1  0F9   [8]  0B F9 57 05 EF F5 28 01
  can1  0F2   [8]  1A 08 70 02 1F 00 00 00
  can1  0FA   [8]  0B 01 63 1B 69 00 00 00
  can1  080   [0] 
  can1  080   [0] 
  can1  0F1   [8]  0B 05 0B 00 B7 00 06 FE
  can1  0F9   [8]  0B F9 3D 05 EB F4 F4 01
  can1  0F2   [8]  35 08 A5 02 27 00 00 00
  can1  0FA   [8]  01 01 55 1B 5A 00 00 00
  can1  080   [0] 
  can1  080   [0] 
  can1  0F1   [8]  0B 05 06 00 96 00 0A FE
  can1  0F9   [8]  0B F9 56 05 E3 F5 16 00
  can1  0F2   [8]  1F 08 87 02 00 00 00 00
  can1  0FA   [8]  F1 01 68 1B 75 00 00 00
  can1  080   [0] 
  can1  080   [0] 
  can1  0F1   [8]  0B 05 17 00 C9 00 01 FE
  can1  0F9   [8]  0B F9 57 05 F3 F5 16 00
  can1  0F2   [8]  3B 08 86 02 42 00 00 00
  can1  0FA   [8]  F4 01 50 1B 71 00 00 00
  can1  080   [0] 
  can1  080   [0] 
  can1  0F1   [8]  0B 05 0E 00 94 FF EE FE
  can1  0F9   [8]  0B F9 6A 05 EC F5 1E 01
  can1  0F2   [8]  24 08 95 02 23 00 00 00
  can1  0FA   [8]  06 01 5E 1B 77 00 00 00
  can1  080   [0] 
  can1  080   [0] 
  can1  0F1   [8]  0B 05 2E 00 B3 FF EF FE
  can1  0F9   [8]  0B F9 76 05 F2 F5 13 01
  can1  0F2   [8]  20 08 84 02 32 00 00 00
  can1  0FA   [8]  0F 01 5D 1B 76 00 00 00
  can1  080   [0] 
  can1  080   [0] 
  can1  0F1   [8]  0B 05 10 00 89 FF E9 FE
  can1  0F9   [8]  0B F9 65 05 EE F5 1E 01
  can1  0F2   [8]  23 08 98 02 1B 00 00 00
  can1  0FA   [8]  07 01 96 1B 92 00 00 00
  can1  080   [0] 
  can1  080   [0] 
  can1  0F1   [8]  0B 04 FB 00 BB FF E0 FE
  can1  0F9   [8]  0B F9 6F 05 ED F5 01 01
  can1  0F2   [8]  34 08 90 02 23 00 00 00
  can1  0FA   [8]  03 01 66 1B 70 00 00 00
  can1  080   [0] 
  can1  080   [0] 
  can1  0F1   [8]  0B 05 1D 00 AC FF F5 FE
  can1  0F9   [8]  0B F9 46 05 EB F5 25 00
  can1  0F2   [8]  4A 08 9C 02 3E 00 00 00
  can1  0FA   [8]  F9 01 6A 1B 6A 00 00 00
  can1  080   [0] 
  can1  080   [0] 
  can1  0F1   [8]  0B 04 E6 00 6A FF FE FE
  can1  0F9   [8]  0B F9 60 05 F5 F5 18 01
  can1  0F2   [8]  15 08 9A 01 E5 00 00 00
  can1  0FA   [8]  0A 01 86 1B 7A 00 00 00
  can1  080   [0] 
  can1  080   [0] 
  can1  742   [1]  00
  can1  0F1   [8]  0B 05 12 00 B4 FF FF FE
  can1  0F9   [8]  0B F9 52 05 E9 F5 18 00
  can1  0F2   [8]  36 08 7D 02 3A 00 00 00
  can1  0FA   [8]  F3 01 5F 1B 7B 00 00 00
  can1  080   [0] 
  can1  080   [0] 
  can1  0F1   [8]  0B 05 00 00 9E FF E7 FE
  can1  0F9   [8]  0B F9 59 05 EB F5 2B 00
  can1  0F2   [8]  30 08 A1 02 2A 00 00 00
  can1  0FA   [8]  F4 01 6C 1B 99 00 00 00
  can1  080   [0] 
  can1  764   [1]  05
  can1  080   [0] 
  can1  0F1   [8]  0B 05 0C 00 9E FF EC FE
  can1  0F9   [8]  0B F9 58 05 E2 F5 25 00
  can1  0F2   [8]  2A 08 96 02 2A 00 00 00
  can1  0FA   [8]  FA 01 59 1B 82 00 00 00
  can1  080   [0] 
  can1  080   [0] 
  can1  0F1   [8]  0B 04 FF 00 9B FF D4 FE
  can1  0F9   [8]  0B F9 63 05 F2 F5 1B 01
  can1  0F2   [8]  24 08 75 02 0C 00 00 00
  can1  0FA   [8]  0F 01 61 1B 70 00 00 00
  can1  080   [0] 
  can1  080   [0] 
  can1  0F1   [8]  0B 05 25 00 9F FF E9 FE
  can1  0F9   [8]  0B F9 54 05 EE F5 0E 01
  can1  0F2   [8]  40 08 72 01 F4 00 00 00
  can1  080   [0] 
  can1  0FA   [8]  1A 01 7B 1B 47 00 00 00
  can1  080   [0] 
  can1  0F1   [8]  0B 05 16 00 AF 00 17 FD
  can1  0F9   [8]  0B F9 62 05 F3 F5 25 00
  can1  0F2   [8]  F5 08 76 02 14 00 00 00
  can1  080   [0] 
  can1  0FA   [8]  FA 01 4C 1B 7A 00 00 00
  can1  080   [0] 
  can1  0F1   [8]  0B 05 0E 00 AB FF F7 FE
  can1  0F9   [8]  0B F9 62 06 02 F5 10 01
  can1  0F2   [8]  33 08 85 02 1B 00 00 00
  can1  080   [0] 
  can1  0FA   [8]  0F 01 60 1B 5E 00 00 00
  can1  080   [0] 
  can1  0F1   [8]  0B 05 16 00 B0 00 01 FE
  can1  0F9   [8]  0B F9 6D 05 F0 F5 11 00
  can1  0F2   [8]  32 08 94 02 27 00 00 00
  can1  080   [0] 
  can1  0FA   [8]  FE 01 62 1B 74 00 00 00
  can1  080   [0] 
  can1  0F1   [8]  0B 05 03 00 B3 FF FC FE
  can1  0F9   [8]  0B F9 4F 05 E4 F5 26 00
  can1  0F2   [8]  23 08 95 02 1B 00 00 00
  can1  0FA   [8]  FE 01 4E 1B 89 00 00 00
  can1  080   [0] 
  can1  080   [0] 
  can1  0F1   [8]  0B 05 13 00 B4 FF E4 FE
  can1  0F9   [8]  0B F9 5F 05 EA F5 25 01
  can1  0F2   [8]  1F 08 86 02 18 00 00 00
  can1  0FA   [8]  08 01 5A 1B 96 00 00 00
  can1  080   [0] 
  can1  080   [0] 
  can1  0F1   [8]  0B 04 FA 00 AD FF EA FE
  can1  0F9   [8]  0B F9 5F 06 03 F5 22 00
  can1  0F2   [8]  33 08 94 02 3A 00 00 00
  can1  0FA   [8]  F6 01 5F 1B 6F 00 00 00
  can1  080   [0] 
  can1  080   [0] 
  can1  0F1   [8]  0B 05 0D 00 72 FF ED FE
  can1  0F9   [8]  0B F9 5B 05 F3 F5 20 01
  can1  0F2   [8]  28 08 78 02 03 00 00 00
  can1  0FA   [8]  23 01 66 1B 76 00 00 00
  can1  080   [0] 
  can1  080   [0] 
  can1  0F1   [8]  0B 05 13 00 B4 FF EA FE
  can1  0F9   [8]  0B F9 7A 05 EE F5 2B 01
  can1  0F2   [8]  2A 08 85 02 23 00 00 00
  can1  0FA   [8]  0B 01 51 1B 95 00 00 00
  can1  080   [0] 
  can1  080   [0] 
  can1  0F1   [8]  0B 04 F5 00 9B FF EA FE
  can1  0F9   [8]  0B F9 68 05 E2 F5 19 01
  can1  0F2   [8]  22 08 99 02 2E 00 00 00
  can1  0FA   [8]  07 01 66 1B 67 00 00 00
  can1  080   [0] 
  can1  080   [0] 
  can1  0F1   [8]  0B 05 1C 00 C2 FF E2 FE
  can1  0F9   [8]  0B F9 67 05 EB F5 19 01
  can1  0F2   [8]  41 08 95 02 27 00 00 00
  can1  0FA   [8]  0F 01 64 1B 73 00 00 00
  can1  080   [0] 
  can1  080   [0] 
  can1  0F1   [8]  0B 05 05 00 A9 FF F4 FE
  can1  0F9   [8]  0B F9 51 05 F8 F5 20 01
  can1  0F2   [8]  1B 08 90 02 08 00 00 00
  can1  0FA   [8]  0E 01 5D 1B 69 00 00 00
  can1  080   [0] 
  can1  080   [0] 
  can1  0F1   [8]  0B 04 EF 00 A9 FF EC FE
  can1  0F9   [8]  0B F9 64 05 F6 F5 20 01
  can1  0F2   [8]  2A 08 8A 02 32 00 00 00
  can1  0FA   [8]  04 01 50 1B 77 00 00 00
  can1  080   [0] 
  can1  080   [0] 
  can1  0F1   [8]  0B 05 0D 00 AE FF F6 FE
  can1  0F9   [8]  0B F9 60 05 FA F5 1D 00
  can1  0F2   [8]  18 08 75 02 32 00 00 00
  can1  0FA   [8]  F9 01 59 1B 62 00 00 00
  can1  080   [0] 
  can1  080   [0] 
  can1  0F1   [8]  0B 05 0E 00 B6 FF F6 FE
  can1  0F9   [8]  0B F9 5D 05 E9 F5 1E 00
  can1  0F2   [8]  05 08 82 02 32 00 00 00
  can1  0FA   [8]  FF 01 63 1B 71 00 00 00
  can1  080   [0] 
  can1  080   [0] 
  can1  0F1   [8]  0B 05 22 00 B6 FF E7 FE
  can1  0F9   [8]  0B F9 74 06 05 F5 13 01
  can1  0F2   [8]  29 08 7E 02 4D 00 00 00
  can1  0FA   [8]  0D 01 5F 1B 91 00 00 00
  can1  080   [0] 
  can1  080   [0] 
  can1  0F1   [8]  0B 05 1A 00 AD FF E7 FE
  can1  0F9   [8]  0B F9 56 05 E0 F5 29 01
  can1  0F2   [8]  27 08 80 02 33 00 00 00
  can1  0FA   [8]  18 01 6A 1B 74 00 00 00
  can1  080   [0] 
  can1  080   [0] 
  can1  0F1   [8]  0B 05 0F 00 B1 FF EE FE
  can1  0F9   [8]  0B F9 64 05 EF F5 23 01
  can1  0F2   [8]  1F 08 72 02 2B 00 00 00
  can1  0FA   [8]  0C 01 4F 1B 6C 00 00 00
  can1  080   [0] 
  can1  080   [0] 
  can1  0F1   [8]  0B 05 04 00 A0 FF E1 FE
  can1  0F9   [8]  0B F9 5A 05 EE F5 1B 01
  can1  0F2   [8]  28 08 7B 02 08 00 00 00
  can1  0FA   [8]  02 01 67 1B 81 00 00 00
  can1  080   [0] 
  can1  080   [0] 
  can1  0F1   [8]  0B 05 0B 00 AB FF EC FE
  can1  0F9   [8]  0B F9 6B 05 E2 F5 1E 01
  can1  0F2   [8]  30 08 89 02 08 00 00 00
  can1  0FA   [8]  01 01 53 1B 74 00 00 00
  can1  080   [0] 
  can1  080   [0] 
  can1  0F1   [8]  0B 04 FE 00 BA FF ED FE
  can1  0F9   [8]  0B F9 60 05 EB F5 23 00
  can1  0F2   [8]  3E 08 94 02 36 00 00 00
  can1  0FA   [8]  F9 01 6E 1B 8C 00 00 00
  can1  080   [0] 
  can1  080   [0] 
  can1  0F1   [8]  0B 05 10 00 B8 FF EA FE
  can1  0F9   [8]  0B F9 52 05 E0 F5 1E 01
  can1  0F2   [8]  2D 08 7F 02 42 00 00 00
  can1  0FA   [8]  17 01 5D 1B 66 00 00 00
  can1  080   [0] 
  can1  080   [0] 
  can1  0F1   [8]  0B 05 0F 00 A8 FF EC FE
  can1  0F9   [8]  0B F9 64 05 F4 F5 09 01
  can1  0F2   [8]  2D 08 75 02 1F 00 00 00
  can1  0FA   [8]  21 01 53 1B 76 00 00 00
  can1  080   [0] 
  can1  080   [0] 
  can1  0F1   [8]  0B 05 12 00 A6 FF F1 FE
  can1  0F9   [8]  0B F9 56 05 E4 F5 1B 01
  can1  0F2   [8]  34 08 81 02 39 00 00 00
  can1  0FA   [8]  11 01 50 1B 71 00 00 00
  can1  080   [0] 
  can1  080   [0] 
  can1  0F1   [8]  0B 05 12 00 A6 FF CD FE
  can1  0F9   [8]  0B F9 56 05 DE F5 19 01
  can1  0F2   [8]  1C 08 86 02 23 00 00 00
  can1  0FA   [8]  05 01 51 1B 71 00 00 00
  can1  080   [0] 
  can1  765   [1]  05
  can1  080   [0] 
  can1  0F1   [8]  0B 05 09 00 D1 FF E4 FE
  can1  0F9   [8]  0B F9 63 05 E5 F5 1B 01
  can1  0F2   [8]  24 08 76 02 2B 00 00 00
  can1  0FA   [8]  05 01 6A 1B 71 00 00 00
  can1  080   [0] 
  can1  080   [0] 
  can1  0F1   [8]  0B 05 00 00 A4 FF F9 FE
  can1  0F9   [8]  0B F9 4C 05 E5 F5 3A 01
  can1  0F2   [8]  08 08 87 02 23 00 00 00
  can1  0FA   [8]  01 01 64 1B 71 00 00 00
  can1  080   [0] 
  can1  080   [0] 
  can1  0F1   [8]  0B 05 23 00 AC FF E7 FE
  can1  0F9   [8]  0B F9 56 05 EE F5 20 01
  can1  0F2   [8]  39 08 7E 02 14 00 00 00
  can1  0FA   [8]  06 01 5E 1B 7E 00 00 00
  can1  080   [0] 
  can1  080   [0] 
  can1  0F1   [8]  0B 05 0E 00 B3 FF FC FE
  can1  0F9   [8]  0B F9 4D 05 EB F5 25 00
  can1  0F2   [8]  2C 08 83 02 1C 00 00 00
  can1  0FA   [8]  F8 01 6F 1B 7B 00 00 00
  can1  080   [0] 
  can1  080   [0] 
  can1  0F1   [8]  0B 05 09 00 A1 FF EC FE
  can1  0F9   [8]  0B F9 4B 05 E6 F5 18 00
  can1  0F2   [8]  28 08 85 02 04 00 00 00
  can1  0FA   [8]  EB 01 4B 1B 7C 00 00 00
  can1  080   [0] 
  can1  080   [0] 
  can1  0F1   [8]  0B 05 0D 00 A1 FF FC FE
  can1  0F9   [8]  0B F9 6F 05 F9 F5 2D 01
  can1  0F2   [8]  39 08 8B 02 2E 00 00 00
  can1  0FA   [8]  09 01 5D 1B 6F 00 00 00
  can1  080   [0] 
  can1  080   [0] 
  can1  0F1   [8]  0B 05 15 00 A0 FF D9 FE
  can1  0F9   [8]  0B F9 5B 05 D3 F4 FF 01
  can1  0F2   [8]  28 08 77 02 36 00 00 00
  can1  0FA   [8]  1E 01 4C 1B 67 00 00 00
  can1  080   [0] 
  can1  080   [0] 
  can1  0F1   [8]  0B 05 00 00 70 FF DE FE
  can1  0F9   [8]  0B F9 5D 05 EB F5 21 01
  can1  0F2   [8]  16 08 94 02 00 00 00 00
  can1  0FA   [8]  16 01 45 1B 58 00 00 00
  can1  080   [0] 
  can1  080   [0] 
  can1  0F1   [8]  0B 04 F5 00 BB FF F1 FE
  can1  0F9   [8]  0B F9 64 05 FA F5 20 00
  can1  0F2   [8]  15 08 80 02 1C 00 00 00
  can1  0FA   [8]  F6 01 5B 1B 7A 00 00 00
  can1  080   [0] 
  can1  080   [0] 
  can1  0F1   [8]  0B 05 04 00 A3 FF DC FE
  can1  0F9   [8]  0B F9 6A 05 F6 F5 06 00
  can1  0F2   [8]  1B 08 8A 02 2B 00 00 00
  can1  0FA   [8]  FE 01 73 1B 7A 00 00 00
  can1  080   [0] 
  can1  080   [0] 
  can1  0F1   [8]  0B 04 F1 00 AC 00 05 FE
  can1  0F9   [8]  0B F9 63 05 E5 F5 1B 01
  can1  0F2   [8]  22 08 84 02 14 00 00 00
  can1  0FA   [8]  06 01 63 1B 85 00 00 00
  can1  080   [0] 
  can1  080   [0] 
  can1  0F1   [8]  0B 04 FE 00 9E FF FE FE
  can1  0F9   [8]  0B F9 54 05 DE F5 19 01
  can1  0F2   [8]  1D 08 88 02 13 00 00 00
  can1  0FA   [8]  01 01 66 1B 64 00 00 00
  can1  080   [0] 
  can1  080   [0] 
  can1  0F1   [8]  0B 04 FF 00 A9 FF D4 FE
  can1  0F9   [8]  0B F9 5B 05 E5 F5 23 01
  can1  0F2   [8]  1F 08 7D 02 17 00 00 00
  can1  0FA   [8]  01 01 60 1B 74 00 00 00
  can1  080   [0] 
  can1  080   [0] 
  can1  0F1   [8]  0B 05 20 00 90 FF F1 FE
  can1  0F9   [8]  0B F9 64 05 DD F5 23 01
  can1  0F2   [8]  26 08 8E 02 22 00 00 00
  can1  0FA   [8]  17 01 45 1B 74 00 00 00
  can1  080   [0] 
  can1  080   [0] 
  can1  0F1   [8]  0B 04 F3 00 75 FF E6 FE
  can1  0F9   [8]  0B F9 4F 05 EE F5 25 00
  can1  0F2   [8]  20 08 87 01 E9 00 00 00
  can1  0FA   [8]  FC 01 62 1B 77 00 00 00
  can1  080   [0] 
  can1  764   [1]  05
  can1  080   [0] 
  can1  0F1   [8]  0B 05 1F 00 CC FF F7 FE
  can1  0F9   [8]  0B F9 65 05 F3 F5 2B 01
  can1  0F2   [8]  1B 08 85 02 51 00 00 00
  can1  0FA   [8]  06 01 70 1B 70 00 00 00
  can1  080   [0] 
  can1  080   [0] 
  can1  0F1   [8]  0B 05 07 00 AE FF E7 FE
  can1  0F9   [8]  0B F9 53 05 EB F5 1B 01
  can1  0F2   [8]  30 08 94 02 3A 00 00 00
  can1  0FA   [8]  0C 01 53 1B 6D 00 00 00
  can1  080   [0] 
  can1  080   [0] 
  can1  0F1   [8]  0B 05 16 00 C5 FF FA FE
  can1  0F9   [8]  0B F9 5B 05 E4 F5 19 01
  can1  0F2   [8]  38 08 8E 02 1C 00 00 00
  can1  0FA   [8]  09 01 62 1B 7E 00 00 00
  can1  080   [0] 
  can1  080   [0] 
  can1  0F1   [8]  0B 04 FE 00 A5 00 03 FE
  can1  0F9   [8]  0B F9 56 05 F4 F5 10 01
  can1  0F2   [8]  29 08 87 02 08 00 00 00
  can1  0FA   [8]  07 01 5E 1B 92 00 00 00
  can1  080   [0] 
  can1  080   [0] 
  can1  0F1   [8]  0B 05 03 00 93 FF F9 FE
  can1  0F9   [8]  0B F9 5B 05 F8 F5 2D 01
  can1  0F2   [8]  25 08 7B 02 1F 00 00 00
  can1  0FA   [8]  00 01 52 1B 88 00 00 00
  can1  080   [0] 
  can1  080   [0] 
  can1  0F1   [8]  0B 05 10 00 B0 FF F4 FE
  can1  0F9   [8]  0B F9 5C 05 E3 F5 09 00
  can1  0F2   [8]  39 08 7E 02 2B 00 00 00
  can1  0FA   [8]  E8 01 54 1B 7C 00 00 00
  can1  080   [0] 
  can1  080   [0] 
  can1  742   [1]  00
  can1  0F1   [8]  0B 05 2B 00 B2 FF F7 FE
  can1  0F9   [8]  0B F9 6F 05 EB F5 28 01
  can1  0F2   [8]  1E 08 93 02 2B 00 00 00
  can1  0FA   [8]  14 01 67 1B 7A 00 00 00
  can1  080   [0] 
  can1  080   [0] 
