  can1  281   [8]  5B 00 00 00 1A F1 01 00
  can1  282   [8]  FE FF FF FF 00 00 00 00
  can1  283   [8]  F7 FF FF FF 00 00 00 00
  can1  284   [8]  00 00 00 00 00 00 00 00
  can1  382   [2]  00 00
  can1  383   [2]  00 00
  can1  384   [2]  FC FF
  can1  381   [2]  7B 01
  can1  481   [6]  37 46 D2 11 02 00
  can1  080   [0] 
  can1  284   [8]  00 00 00 00 00 00 00 00
  can1  281   [8]  DB 00 00 00 AA E9 01 00
  can1  282   [8]  FE FF FF FF 00 00 00 00
  can1  283   [8]  F7 FF FF FF 00 00 00 00
  can1  382   [2]  00 00
  can1  383   [2]  00 00
  can1  384   [2]  00 00
  can1  381   [2]  2A 02
  can1  080   [0] 
  can1  281   [8]  60 01 00 00 5C 04 02 00
  can1  282   [8]  FE FF FF FF 00 00 00 00
  can1  283   [8]  F7 FF FF FF 00 00 00 00
  can1  284   [8]  00 00 00 00 00 00 00 00
  can1  382   [2]  00 00
  can1  383   [2]  00 00
  can1  384   [2]  00 00
  can1  381   [2]  DB 01
  can1  080   [0] 
  can1  284   [8]  00 00 00 00 00 00 00 00
  can1  281   [8]  E8 01 00 00 35 0A 02 00
  can1  282   [8]  FE FF FF FF 00 00 00 00
  can1  283   [8]  F7 FF FF FF 00 00 00 00
  can1  382   [2]  00 00
  can1  383   [2]  00 00
  can1  384   [2]  00 00
  can1  381   [2]  A6 01
  can1  080   [0] 
  can1  281   [8]  6E 02 00 00 66 19 02 00
  can1  282   [8]  FE FF FF FF 00 00 00 00
  can1  283   [8]  F7 FF FF FF 00 00 00 00
  can1  284   [8]  00 00 00 00 00 00 00 00
  can1  382   [2]  00 00
  can1  383   [2]  00 00
  can1  384   [2]  FC FF
  can1  381   [2]  D1 01
  can1  080   [0] 
  can1  284   [8]  00 00 00 00 00 00 00 00
  can1  281   [8]  FD 02 00 00 69 35 02 00
  can1  282   [8]  FE FF FF FF 00 00 00 00
  can1  283   [8]  F7 FF FF FF 00 00 00 00
  can1  382   [2]  00 00
  can1  384   [2]  FC FF
  can1  383   [2]  FC FF
  can1  381   [2]  62 01
  can1  080   [0] 
  can1  281   [8]  88 03 00 00 60 27 02 00
  can1  282   [8]  FE FF FF FF 00 00 00 00
  can1  283   [8]  F7 FF FF FF 00 00 00 00
  can1  284   [8]  00 00 00 00 00 00 00 00
  can1  382   [2]  00 00
  can1  383   [2]  00 00
  can1  384   [2]  00 00
  can1  381   [2]  B4 01
  can1  080   [0] 
  can1  284   [8]  00 00 00 00 00 00 00 00
  can1  281   [8]  17 04 00 00 1D 2C 02 00
  can1  282   [8]  FE FF FF FF 00 00 00 00
  can1  283   [8]  F7 FF FF FF 00 00 00 00
  can1  382   [2]  00 00
  can1  384   [2]  FC FF
  can1  383   [2]  FC FF
  can1  381   [2]  8A 02
  can1  080   [0] 
  can1  282   [8]  FE FF FF FF 00 00 00 00
  can1  281   [8]  A5 04 00 00 AE 1F 02 00
  can1  283   [8]  F7 FF FF FF 00 00 00 00
  can1  284   [8]  00 00 00 00 00 00 00 00
  can1  382   [2]  00 00
  can1  383   [2]  00 00
  can1  384   [2]  00 00
  can1  381   [2]  CD 01
  can1  080   [0] 
  can1  284   [8]  00 00 00 00 00 00 00 00
  can1  281   [8]  32 05 00 00 7F 2C 02 00
  can1  282   [8]  FE FF FF FF 00 00 00 00
  can1  283   [8]  F7 FF FF FF 00 00 00 00
  can1  382   [2]  00 00
  can1  383   [2]  00 00
  can1  384   [2]  FC FF
  can1  381   [2]  B8 01
  can1  080   [0] 
  can1  282   [8]  FE FF FF FF 00 00 00 00
  can1  283   [8]  F7 FF FF FF 00 00 00 00
  can1  281   [8]  C1 05 00 00 5F 2E 02 00
  can1  284   [8]  00 00 00 00 00 00 00 00
  can1  382   [2]  FC FF
  can1  383   [2]  FC FF
  can1  384   [2]  FC FF
  can1  381   [2]  A2 01
  can1  080   [0] 
  can1  284   [8]  00 00 00 00 00 00 00 00
  can1  281   [8]  4C 06 00 00 92 2C 02 00
  can1  282   [8]  FE FF FF FF 00 00 00 00
  can1  283   [8]  F7 FF FF FF 00 00 00 00
  can1  383   [2]  00 00
  can1  382   [2]  00 00
  can1  384   [2]  00 00
  can1  381   [2]  06 02
  can1  080   [0] 
  can1  282   [8]  FE FF FF FF 00 00 00 00
  can1  281   [8]  DB 06 00 00 ED 20 02 00
  can1  283   [8]  F7 FF FF FF 00 00 00 00
  can1  284   [8]  00 00 00 00 00 00 00 00
  can1  383   [2]  00 00
  can1  384   [2]  00 00
  can1  382   [2]  FC FF
  can1  381   [2]  2A 02
  can1  080   [0] 
  can1  283   [8]  F7 FF FF FF 00 00 00 00
  can1  284   [8]  00 00 00 00 00 00 00 00
  can1  281   [8]  69 07 00 00 C8 2A 02 00
  can1  282   [8]  FE FF FF FF 00 00 00 00
  can1  383   [2]  00 00
  can1  382   [2]  00 00
  can1  384   [2]  00 00
  can1  381   [2]  A2 01
  can1  080   [0] 
  can1  282   [8]  FE FF FF FF 00 00 00 00
  can1  283   [8]  F7 FF FF FF 00 00 00 00
  can1  281   [8]  F9 07 00 00 86 2B 02 00
  can1  284   [8]  00 00 00 00 00 00 00 00
  can1  382   [2]  00 00
  can1  384   [2]  00 00
  can1  383   [2]  FC FF
  can1  381   [2]  A6 01
  can1  080   [0] 
  can1  281   [8]  85 08 00 00 43 3B 02 00
  can1  282   [8]  FE FF FF FF 00 00 00 00
  can1  283   [8]  F7 FF FF FF 00 00 00 00
  can1  284   [8]  00 00 00 00 00 00 00 00
  can1  382   [2]  00 00
  can1  383   [2]  00 00
  can1  384   [2]  00 00
  can1  381   [2]  62 01