  can1  765   [1]  05
  can1  765   [1]  05
  can1  765   [1]  05
  can1  765   [1]  05
  can1  765   [1]  05
  can1  765   [1]  05
  can1  601   [8]  23 00 18 01 81 01 00 80
  can1  581   [8]  60 00 18 01 00 00 00 00
  can1  764   [1]  00
  can1  211   [1]  11
  can1  212   [1]  00
  can1  201   [2]  00 00
  can1  301   [4]  00 00 00 00
  can1  401   [4]  00 00 00 00
  can1  501   [2]  00 00
  can1  202   [2]  00 00
  can1  302   [4]  00 00 00 00
  can1  402   [4]  00 00 00 00
  can1  502   [2]  00 00
  can1  081   [8]  00 00 00 00 00 00 00 00
  can1  203   [2]  00 00
  can1  303   [4]  00 00 00 00
  can1  403   [4]  00 00 00 00
  can1  503   [2]  00 00
  can1  204   [2]  00 00
  can1  082   [8]  00 00 00 00 00 00 00 00
  can1  182   [2]  78 17
  can1  304   [4]  00 00 00 00
  can1  083   [8]  00 00 00 00 00 00 00 00
  can1  404   [4]  00 00 00 00
  can1  183   [2]  78 17
  can1  184   [2]  70 06
  can1  504   [2]  00 00
  can1  0F8   [8]  0B 00 00 00 00 08 02 00
  can1  0F0   [8]  0B 00 00 00 00 08 02 00
  can1  184   [2]  70 07
  can1  080   [0] 
  can1  281   [8]  68 CD FF FF 00 00 00 00
  can1  283   [8]  99 17 00 00 00 00 00 00
  can1  282   [8]  51 F4 FF FF 00 00 00 00
  can1  284   [8]  D0 12 00 00 00 00 00 00
  can1  381   [2]  00 00
  can1  382   [2]  00 00
  can1  383   [2]  00 00
  can1  481   [6]  78 17 00 00 00 00
  can1  482   [6]  78 17 00 00 00 00
  can1  384   [2]  0E 00
  can1  483   [6]  78 17 00 00 00 00
  can1  484   [6]  70 07 00 00 00 00
  can1  601   [8]  2F 00 1A 00 00 00 00 00
  can1  581   [8]  60 00 1A 00 00 00 00 00
  can1  080   [0] 
  can1  281   [8]  68 CD FF FF 00 00 00 00
  can1  282   [8]  51 F4 FF FF 00 00 00 00
  can1  283   [8]  99 17 00 00 00 00 00 00
  can1  284   [8]  D0 12 00 00 00 00 00 00
  can1  381   [2]  00 00
  can1  382   [2]  00 00
  can1  383   [2]  00 00
  can1  384   [2]  0B 00
  can1  601   [8]  2F 00 18 02 FF 00 00 00
  can1  581   [8]  60 00 18 02 00 00 00 00
  can1  080   [0] 
  can1  281   [8]  68 CD FF FF 00 00 00 00
  can1  283   [8]  99 17 00 00 00 00 00 00
  can1  282   [8]  51 F4 FF FF 00 00 00 00
  can1  284   [8]  D0 12 00 00 00 00 00 00
  can1  381   [2]  00 00
  can1  382   [2]  00 00
  can1  383   [2]  00 00
  can1  384   [2]  0E 00
  can1  601   [8]  23 00 1A 01 10 00 41 60
  can1  581   [8]  60 00 1A 01 00 00 00 00
  can1  080   [0] 
  can1  281   [8]  68 CD FF FF 00 00 00 00
  can1  282   [8]  51 F4 FF FF 00 00 00 00
  can1  283   [8]  99 17 00 00 00 00 00 00
  can1  284   [8]  D0 12 00 00 00 00 00 00
  can1  381   [2]  00 00
  can1  382   [2]  00 00
  can1  383   [2]  04 00
  can1  384   [2]  0E 00
  can1  601   [8]  2F 00 1A 00 01 00 00 00
  can1  581   [8]  60 00 1A 00 00 00 00 00
  can1  080   [0] 
  can1  282   [8]  51 F4 FF FF 00 00 00 00
  can1  281   [8]  68 CD FF FF 00 00 00 00
  can1  283   [8]  99 17 00 00 00 00 00 00
  can1  284   [8]  D0 12 00 00 00 00 00 00
  can1  381   [2]  00 00
  can1  382   [2]  00 00
  can1  383   [2]  FC FF
  can1  384   [2]  0E 00
  can1  601   [8]  23 00 18 01 81 01 00 00
  can1  581   [8]  60 00 18 01 00 00 00 00
  can1  080   [0] 
  can1  283   [8]  99 17 00 00 00 00 00 00
  can1  281   [8]  68 CD FF FF 00 00 00 00
  can1  282   [8]  51 F4 FF FF 00 00 00 00
  can1  284   [8]  D0 12 00 00 00 00 00 00
  can1  381   [2]  00 00
  can1  382   [2]  00 00
  can1  383   [2]  FC FF
  can1  384   [2]  0E 00
  can1  601   [8]  23 01 18 01 81 02 00 80
  can1  581   [8]  60 01 18 01 00 00 00 00
  can1  080   [0] 
  can1  283   [8]  99 17 00 00 00 00 00 00
  can1  282   [8]  51 F4 FF FF 00 00 00 00
  can1  284   [8]  D0 12 00 00 00 00 00 00
  can1  381   [2]  00 00
  can1  382   [2]  00 00
  can1  383   [2]  04 00
  can1  384   [2]  0E 00
  can1  601   [8]  2F 01 1A 00 00 00 00 00
  can1  581   [8]  60 01 1A 00 00 00 00 00
  can1  080   [0] 
  can1  283   [8]  99 17 00 00 00 00 00 00
  can1  282   [8]  51 F4 FF FF 00 00 00 00
  can1  284   [8]  D0 12 00 00 00 00 00 00
  can1  381   [2]  00 00
  can1  382   [2]  00 00
  can1  383   [2]  00 00
  can1  384   [2]  0E 00
  can1  601   [8]  2F 01 18 02 01 00 00 00
  can1  581   [8]  60 01 18 02 00 00 00 00
  can1  080   [0] 
  can1  283   [8]  99 17 00 00 00 00 00 00
  can1  282   [8]  51 F4 FF FF 00 00 00 00
  can1  284   [8]  D0 12 00 00 00 00 00 00
  can1  382   [2]  00 00
  can1  381   [2]  00 00
  can1  383   [2]  00 00
  can1  384   [2]  0E 00
  can1  601   [8]  23 01 1A 01 20 00 64 60
  can1  581   [8]  60 01 1A 01 00 00 00 00
  can1  080   [0] 
  can1  282   [8]  51 F4 FF FF 00 00 00 00
  can1  283   [8]  99 17 00 00 00 00 00 00
  can1  284   [8]  D0 12 00 00 00 00 00 00
  can1  381   [2]  00 00
  can1  382   [2]  00 00
  can1  383   [2]  00 00
  can1  384   [2]  0E 00
  can1  080   [0] 
  can1  283   [8]  99 17 00 00 00 00 00 00
  can1  282   [8]  51 F4 FF FF 00 00 00 00
  can1  284   [8]  CF 12 00 00 E4 F7 FF FF
  can1  381   [2]  00 00
  can1  382   [2]  00 00
  can1  383   [2]  00 00
  can1  384   [2]  00 00
  can1  601   [8]  23 01 1A 02 20 00 6C 60
  can1  581   [8]  60 01 1A 02 00 00 00 00
  can1  080   [0] 
  can1  283   [8]  99 17 00 00 00 00 00 00
  can1  282   [8]  51 F4 FF FF 00 00 00 00
  can1  284   [8]  CC 12 00 00 1D F5 FF FF
  can1  381   [2]  04 00
  can1  382   [2]  00 00
  can1  383   [2]  04 00
  can1  384   [2]  00 00
  can1  601   [8]  2F 01 1A 00 02 00 00 00
  can1  581   [8]  60 01 1A 00 00 00 00 00
  can1  080   [0] 
  can1  283   [8]  99 17 00 00 00 00 00 00
  can1  284   [8]  CB 12 00 00 A4 FE FF FF
  can1  282   [8]  51 F4 FF FF 00 00 00 00
  can1  381   [2]  04 00
  can1  382   [2]  00 00
  can1  383   [2]  00 00
  can1  384   [2]  00 00
  can1  601   [8]  23 01 18 01 81 02 00 00
  can1  581   [8]  60 01 18 01 00 00 00 00
  can1  080   [0] 
  can1  281   [8]  68 CD FF FF 00 00 00 00
  can1  282   [8]  51 F4 FF FF 00 00 00 00
  can1  283   [8]  99 17 00 00 00 00 00 00
  can1  284   [8]  CB 12 00 00 00 00 00 00
  can1  381   [2]  00 00
  can1  382   [2]  FC FF
  can1  383   [2]  00 00
  can1  384   [2]  00 00
  can1  601   [8]  23 02 18 01 81 03 00 80
  can1  581   [8]  60 02 18 01 00 00 00 00
  can1  080   [0] 
  can1  283   [8]  99 17 00 00 00 00 00 00
  can1  281   [8]  68 CD FF FF 00 00 00 00
  can1  282   [8]  51 F4 FF FF 00 00 00 00
  can1  284   [8]  CB 12 00 00 00 00 00 00
  can1  382   [2]  00 00
  can1  383   [2]  00 00
  can1  384   [2]  00 00
  can1  601   [8]  2F 02 1A 00 00 00 00 00
  can1  581   [8]  60 02 1A 00 00 00 00 00
  can1  080   [0] 
  can1  283   [8]  99 17 00 00 00 00 00 00
  can1  281   [8]  68 CD FF FF EF 04 00 00
  can1  282   [8]  51 F4 FF FF 00 00 00 00
  can1  284   [8]  CB 12 00 00 00 00 00 00
  can1  382   [2]  00 00
  can1  383   [2]  00 00
  can1  384   [2]  00 00
  can1  601   [8]  2F 02 18 02 01 00 00 00
  can1  581   [8]  60 02 18 02 00 00 00 00
  can1  080   [0] 
  can1  282   [8]  51 F4 FF FF 00 00 00 00
  can1  281   [8]  68 CD FF FF 00 00 00 00
  can1  283   [8]  99 17 00 00 00 00 00 00
  can1  284   [8]  CA 12 00 00 B8 F7 FF FF
  can1  383   [2]  00 00
  can1  382   [2]  04 00
  can1  384   [2]  00 00
  can1  601   [8]  23 02 1A 01 10 00 77 60
  can1  581   [8]  60 02 1A 01 00 00 00 00
  can1  080   [0] 
  can1  283   [8]  99 17 00 00 00 00 00 00
  can1  281   [8]  68 CD FF FF 00 00 00 00
  can1  282   [8]  51 F4 FF FF 00 00 00 00
  can1  284   [8]  CA 12 00 00 00 00 00 00
  can1  382   [2]  00 00
  can1  383   [2]  00 00
  can1  384   [2]  00 00
  can1  601   [8]  2F 02 1A 00 01 00 00 00
  can1  581   [8]  60 02 1A 00 00 00 00 00
  can1  080   [0] 
  can1  281   [8]  68 CD FF FF 00 00 00 00
  can1  282   [8]  51 F4 FF FF 00 00 00 00
  can1  283   [8]  99 17 00 00 00 00 00 00
  can1  284   [8]  CA 12 00 00 00 00 00 00
  can1  382   [2]  00 00
  can1  383   [2]  00 00
  can1  384   [2]  00 00
  can1  601   [8]  23 02 18 01 81 03 00 00
  can1  581   [8]  60 02 18 01 00 00 00 00
  can1  080   [0] 
  can1  281   [8]  68 CD FF FF 00 00 00 00
  can1  282   [8]  51 F4 FF FF 00 00 00 00
  can1  283   [8]  99 17 00 00 00 00 00 00
  can1  284   [8]  CA 12 00 00 00 00 00 00
  can1  381   [2]  00 00
  can1  382   [2]  00 00
  can1  383   [2]  00 00
  can1  384   [2]  00 00
  can1  601   [8]  23 00 14 01 01 02 00 80
  can1  581   [8]  60 00 14 01 00 00 00 00
  can1  080   [0] 
  can1  282   [8]  51 F4 FF FF 00 00 00 00
  can1  281   [8]  68 CD FF FF 00 00 00 00
  can1  283   [8]  99 17 00 00 00 00 00 00
  can1  284   [8]  CA 12 00 00 00 00 00 00
  can1  381   [2]  00 00
  can1  382   [2]  00 00
  can1  383   [2]  00 00
  can1  384   [2]  00 00
  can1  601   [8]  2F 00 16 00 00 00 00 00
  can1  581   [8]  60 00 16 00 00 00 00 00
  can1  080   [0] 
  can1  282   [8]  51 F4 FF FF 00 00 00 00
  can1  281   [8]  68 CD FF FF 00 00 00 00
  can1  283   [8]  99 17 00 00 00 00 00 00
  can1  284   [8]  CA 12 00 00 00 00 00 00
  can1  382   [2]  00 00
  can1  381   [2]  FC FF
  can1  383   [2]  00 00
  can1  384   [2]  FC FF
  can1  080   [0] 
  can1  281   [8]  68 CD FF FF 00 00 00 00
  can1  282   [8]  51 F4 FF FF 00 00 00 00
  can1  283   [8]  99 17 00 00 00 00 00 00
  can1  284   [8]  CA 12 00 00 00 00 00 00
  can1  381   [2]  00 00
  can1  382   [2]  00 00
  can1  383   [2]  00 00
  can1  384   [2]  00 00
  can1  601   [8]  2F 00 14 02 FF 00 00 00
  can1  581   [8]  60 00 14 02 00 00 00 00
  can1  080   [0] 
  can1  283   [8]  99 17 00 00 00 00 00 00
  can1  282   [8]  51 F4 FF FF 00 00 00 00
  can1  281   [8]  68 CD FF FF 00 00 00 00
  can1  284   [8]  CA 12 00 00 00 00 00 00
  can1  381   [2]  00 00
  can1  382   [2]  00 00
  can1  383   [2]  00 00
  can1  384   [2]  FC FF
  can1  601   [8]  23 00 16 01 10 00 40 60
  can1  581   [8]  60 00 16 01 00 00 00 00
  can1  080   [0] 
  can1  283   [8]  99 17 00 00 00 00 00 00
  can1  281   [8]  68 CD FF FF 00 00 00 00
  can1  282   [8]  51 F4 FF FF 00 00 00 00
  can1  284   [8]  CA 12 00 00 00 00 00 00
  can1  381   [2]  00 00
  can1  382   [2]  00 00
  can1  383   [2]  00 00
  can1  384   [2]  00 00
  can1  581   [8]  60 00 16 00 00 00 00 00
  can1  601   [8]  2F 00 16 00 01 00 00 00
  can1  080   [0] 
  can1  283   [8]  99 17 00 00 00 00 00 00
  can1  281   [8]  68 CD FF FF 00 00 00 00
  can1  282   [8]  51 F4 FF FF 00 00 00 00
  can1  284   [8]  CA 12 00 00 00 00 00 00
  can1  381   [2]  00 00
  can1  382   [2]  FC FF
  can1  383   [2]  FC FF
  can1  384   [2]  00 00
  can1  601   [8]  23 00 14 01 01 02 00 00
  can1  581   [8]  60 00 14 01 00 00 00 00
  can1  080   [0] 
  can1  283   [8]  99 17 00 00 00 00 00 00
  can1  282   [8]  51 F4 FF FF 00 00 00 00
  can1  281   [8]  68 CD FF FF 00 00 00 00
  can1  284   [8]  CA 12 00 00 00 00 00 00
  can1  381   [2]  00 00
  can1  382   [2]  00 00
  can1  383   [2]  00 00
  can1  384   [2]  04 00
  can1  601   [8]  23 01 14 01 01 03 00 80
  can1  581   [8]  60 01 14 01 00 00 00 00
  can1  764   [1]  05
  can1  080   [0] 
  can1  282   [8]  51 F4 FF FF 00 00 00 00
  can1  281   [8]  68 CD FF FF 00 00 00 00
  can1  283   [8]  99 17 00 00 00 00 00 00
  can1  284   [8]  CA 12 00 00 00 00 00 00
  can1  381   [2]  00 00
  can1  382   [2]  00 00
  can1  383   [2]  00 00
  can1  384   [2]  00 00
  can1  765   [1]  05
  can1  601   [8]  2F 01 16 00 00 00 00 00
  can1  581   [8]  60 01 16 00 00 00 00 00
  can1  080   [0] 
  can1  281   [8]  68 CD FF FF 00 00 00 00
  can1  283   [8]  99 17 00 00 00 00 00 00
  can1  282   [8]  51 F4 FF FF 00 00 00 00
  can1  284   [8]  CA 12 00 00 00 00 00 00
  can1  381   [2]  00 00
  can1  382   [2]  00 00
  can1  383   [2]  04 00
  can1  384   [2]  00 00
  can1  601   [8]  2F 01 14 02 FF 00 00 00
  can1  581   [8]  60 01 14 02 00 00 00 00
  can1  080   [0] 
  can1  283   [8]  99 17 00 00 00 00 00 00
  can1  281   [8]  68 CD FF FF 00 00 00 00
  can1  282   [8]  51 F4 FF FF 00 00 00 00
  can1  284   [8]  CA 12 00 00 00 00 00 00
  can1  381   [2]  00 00
  can1  382   [2]  00 00
  can1  383   [2]  FC FF
  can1  384   [2]  00 00
  can1  601   [8]  23 01 16 01 20 00 7A 60
  can1  581   [8]  60 01 16 01 00 00 00 00
  can1  080   [0] 
  can1  283   [8]  99 17 00 00 00 00 00 00
  can1  281   [8]  68 CD FF FF 00 00 00 00
  can1  282   [8]  51 F4 FF FF 00 00 00 00
  can1  284   [8]  CA 12 00 00 00 00 00 00
  can1  381   [2]  00 00
  can1  382   [2]  00 00
  can1  383   [2]  00 00
  can1  384   [2]  00 00
  can1  601   [8]  2F 01 16 00 01 00 00 00
  can1  581   [8]  60 01 16 00 00 00 00 00
  can1  080   [0] 
  can1  282   [8]  51 F4 FF FF 00 00 00 00
  can1  281   [8]  68 CD FF FF 00 00 00 00
  can1  283   [8]  99 17 00 00 00 00 00 00
  can1  284   [8]  CA 12 00 00 00 00 00 00
  can1  381   [2]  FC FF
  can1  382   [2]  00 00
  can1  383   [2]  00 00
  can1  384   [2]  00 00
  can1  601   [8]  23 01 14 01 01 03 00 00
  can1  581   [8]  60 01 14 01 00 00 00 00
  can1  080   [0] 
  can1  282   [8]  51 F4 FF FF 00 00 00 00
  can1  281   [8]  68 CD FF FF 00 00 00 00
  can1  283   [8]  99 17 00 00 00 00 00 00
  can1  284   [8]  CA 12 00 00 00 00 00 00
  can1  381   [2]  00 00
  can1  382   [2]  00 00
  can1  383   [2]  00 00
  can1  384   [2]  00 00
  can1  601   [8]  23 02 14 01 01 04 00 80
  can1  581   [8]  60 02 14 01 00 00 00 00
  can1  080   [0] 
  can1  281   [8]  68 CD FF FF 00 00 00 00
  can1  282   [8]  51 F4 FF FF 00 00 00 00
  can1  283   [8]  99 17 00 00 00 00 00 00
  can1  284   [8]  CA 12 00 00 00 00 00 00
  can1  381   [2]  FC FF
  can1  382   [2]  00 00
  can1  383   [2]  04 00
  can1  384   [2]  FC FF
  can1  601   [8]  2F 02 16 00 00 00 00 00
  can1  581   [8]  60 02 16 00 00 00 00 00
  can1  080   [0] 
  can1  284   [8]  CA 12 00 00 00 00 00 00
  can1  281   [8]  68 CD FF FF 00 00 00 00
  can1  282   [8]  51 F4 FF FF 00 00 00 00
  can1  283   [8]  99 17 00 00 00 00 00 00
  can1  381   [2]  00 00
  can1  382   [2]  00 00
  can1  383   [2]  FC FF
  can1  384   [2]  00 00
  can1  080   [0] 
  can1  282   [8]  51 F4 FF FF 00 00 00 00
  can1  281   [8]  68 CD FF FF E2 FE FF FF
  can1  283   [8]  99 17 00 00 00 00 00 00
  can1  284   [8]  CA 12 00 00 00 00 00 00
  can1  381   [2]  00 00
  can1  382   [2]  00 00
  can1  383   [2]  00 00
  can1  384   [2]  FC FF
  can1  601   [8]  2F 02 14 02 FF 00 00 00
  can1  581   [8]  60 02 14 02 00 00 00 00
  can1  080   [0] 
  can1  282   [8]  51 F4 FF FF 00 00 00 00
  can1  281   [8]  68 CD FF FF 00 00 00 00
  can1  283   [8]  99 17 00 00 00 00 00 00
  can1  284   [8]  CA 12 00 00 00 00 00 00
  can1  381   [2]  00 00
  can1  382   [2]  00 00
  can1  383   [2]  FC FF
  can1  384   [2]  00 00
  can1  601   [8]  23 02 16 01 20 00 FF 60
  can1  581   [8]  60 02 16 01 00 00 00 00
  can1  080   [0] 
  can1  282   [8]  51 F4 FF FF 00 00 00 00
  can1  281   [8]  68 CD FF FF 00 00 00 00
  can1  283   [8]  99 17 00 00 00 00 00 00
  can1  284   [8]  CA 12 00 00 00 00 00 00
  can1  381   [2]  00 00
  can1  382   [2]  00 00
  can1  383   [2]  00 00
  can1  384   [2]  00 00
  can1  601   [8]  2F 02 16 00 01 00 00 00
  can1  581   [8]  60 02 16 00 00 00 00 00
  can1  080   [0] 
  can1  282   [8]  51 F4 FF FF 00 00 00 00
  can1  281   [8]  68 CD FF FF 00 00 00 00
  can1  283   [8]  99 17 00 00 00 00 00 00
  can1  284   [8]  CA 12 00 00 00 00 00 00
  can1  382   [2]  00 00
  can1  381   [2]  FC FF
  can1  383   [2]  00 00
  can1  384   [2]  00 00
  can1  601   [8]  23 02 14 01 01 04 00 00
  can1  581   [8]  60 02 14 01 00 00 00 00
  can1  080   [0] 
  can1  282   [8]  51 F4 FF FF 00 00 00 00
  can1  281   [8]  68 CD FF FF 00 00 00 00
  can1  283   [8]  99 17 00 00 00 00 00 00
  can1  284   [8]  CA 12 00 00 00 00 00 00
  can1  381   [2]  00 00
  can1  382   [2]  00 00
  can1  383   [2]  00 00
  can1  384   [2]  00 00
  can1  581   [8]  60 03 14 01 00 00 00 00
  can1  601   [8]  23 03 14 01 01 05 00 80
  can1  080   [0] 
  can1  282   [8]  51 F4 FF FF 00 00 00 00
  can1  281   [8]  68 CD FF FF 7D 01 00 00
  can1  283   [8]  99 17 00 00 00 00 00 00
  can1  284   [8]  CA 12 00 00 00 00 00 00
  can1  381   [2]  00 00
  can1  382   [2]  00 00
  can1  383   [2]  00 00
  can1  384   [2]  00 00
  can1  601   [8]  2F 03 16 00 00 00 00 00
  can1  581   [8]  60 03 16 00 00 00 00 00
  can1  080   [0] 
  can1  283   [8]  99 17 00 00 00 00 00 00
  can1  281   [8]  68 CD FF FF A5 01 00 00
  can1  282   [8]  51 F4 FF FF 00 00 00 00
  can1  284   [8]  CA 12 00 00 00 00 00 00
  can1  381   [2]  00 00
  can1  382   [2]  00 00
  can1  383   [2]  FC FF
  can1  384   [2]  00 00
  can1  601   [8]  2F 03 14 02 FF 00 00 00
  can1  581   [8]  60 03 14 02 00 00 00 00
  can1  080   [0] 
  can1  282   [8]  51 F4 FF FF 00 00 00 00
  can1  281   [8]  68 CD FF FF 00 00 00 00
  can1  283   [8]  99 17 00 00 00 00 00 00
  can1  284   [8]  CA 12 00 00 00 00 00 00
  can1  381   [2]  00 00
  can1  382   [2]  00 00
  can1  383   [2]  00 00
  can1  384   [2]  00 00
  can1  601   [8]  23 03 16 01 10 00 71 60
  can1  581   [8]  60 03 16 01 00 00 00 00
  can1  080   [0] 
  can1  282   [8]  51 F4 FF FF 00 00 00 00
  can1  281   [8]  68 CD FF FF 00 00 00 00
  can1  283   [8]  99 17 00 00 00 00 00 00
  can1  284   [8]  CA 12 00 00 00 00 00 00
  can1  381   [2]  00 00
  can1  382   [2]  00 00
  can1  383   [2]  FC FF
  can1  384   [2]  00 00
  can1  601   [8]  2F 03 16 00 01 00 00 00
  can1  581   [8]  60 03 16 00 00 00 00 00
  can1  080   [0] 
  can1  282   [8]  51 F4 FF FF 00 00 00 00
  can1  281   [8]  68 CD FF FF 00 00 00 00
  can1  283   [8]  99 17 00 00 00 00 00 00
  can1  284   [8]  CA 12 00 00 00 00 00 00
  can1  382   [2]  00 00
  can1  381   [2]  FC FF
  can1  383   [2]  00 00
  can1  384   [2]  00 00
  can1  601   [8]  23 03 14 01 01 05 00 00
  can1  581   [8]  60 03 14 01 00 00 00 00
  can1  080   [0] 
  can1  282   [8]  51 F4 FF FF 00 00 00 00
  can1  281   [8]  67 CD FF FF 22 F8 FF FF
  can1  283   [8]  99 17 00 00 00 00 00 00
  can1  284   [8]  C9 12 00 00 93 F7 FF FF
  can1  382   [2]  00 00
  can1  381   [2]  04 00
  can1  383   [2]  00 00
  can1  384   [2]  00 00
  can1  602   [8]  23 00 18 01 82 01 00 80
  can1  582   [8]  60 00 18 01 00 00 00 00
  can1  080   [0] 
  can1  282   [8]  51 F4 FF FF 00 00 00 00
  can1  281   [8]  68 CD FF FF 4A 03 00 00
  can1  283   [8]  99 17 00 00 00 00 00 00
  can1  284   [8]  C9 12 00 00 00 00 00 00
  can1  381   [2]  FC FF
  can1  382   [2]  00 00
  can1  383   [2]  00 00
  can1  384   [2]  00 00
  can1  602   [8]  2F 00 1A 00 00 00 00 00
  can1  080   [0] 
  can1  582   [8]  60 00 1A 00 00 00 00 00
  can1  282   [8]  51 F4 FF FF 00 00 00 00
  can1  281   [8]  68 CD FF FF 00 00 00 00
  can1  283   [8]  99 17 00 00 00 00 00 00
  can1  284   [8]  C9 12 00 00 00 00 00 00
  can1  381   [2]  00 00
  can1  382   [2]  00 00
  can1  383   [2]  00 00
  can1  384   [2]  00 00
  can1  080   [0] 
  can1  282   [8]  51 F4 FF FF 00 00 00 00
  can1  281   [8]  68 CD FF FF 00 00 00 00
  can1  283   [8]  99 17 00 00 00 00 00 00
  can1  284   [8]  C9 12 00 00 00 00 00 00
  can1  381   [2]  00 00
  can1  382   [2]  00 00
  can1  383   [2]  00 00
  can1  384   [2]  00 00
  can1  602   [8]  2F 00 18 02 FF 00 00 00
  can1  582   [8]  60 00 18 02 00 00 00 00
  can1  080   [0] 
  can1  282   [8]  51 F4 FF FF 00 00 00 00
  can1  281   [8]  68 CD FF FF 00 00 00 00
  can1  283   [8]  99 17 00 00 00 00 00 00
  can1  284   [8]  C9 12 00 00 00 00 00 00
  can1  382   [2]  00 00
  can1  381   [2]  FC FF
  can1  383   [2]  00 00
  can1  384   [2]  00 00
  can1  602   [8]  23 00 1A 01 10 00 41 60
  can1  582   [8]  60 00 1A 01 00 00 00 00
  can1  080   [0] 
  can1  282   [8]  51 F4 FF FF 00 00 00 00
  can1  281   [8]  68 CD FF FF 00 00 00 00
  can1  283   [8]  99 17 00 00 00 00 00 00
  can1  284   [8]  C9 12 00 00 00 00 00 00
  can1  381   [2]  00 00
  can1  382   [2]  FC FF
  can1  383   [2]  00 00
  can1  384   [2]  00 00
  can1  582   [8]  60 00 1A 00 00 00 00 00
  can1  602   [8]  2F 00 1A 00 01 00 00 00
  can1  080   [0] 
  can1  284   [8]  C9 12 00 00 00 00 00 00
  can1  281   [8]  68 CD FF FF 00 00 00 00
  can1  282   [8]  51 F4 FF FF 00 00 00 00
  can1  283   [8]  99 17 00 00 00 00 00 00
  can1  381   [2]  00 00
  can1  382   [2]  00 00
  can1  383   [2]  00 00
  can1  384   [2]  00 00
  can1  602   [8]  23 00 18 01 82 01 00 00
  can1  582   [8]  60 00 18 01 00 00 00 00
  can1  080   [0] 
  can1  282   [8]  51 F4 FF FF 00 00 00 00
  can1  281   [8]  68 CD FF FF 00 00 00 00
  can1  283   [8]  99 17 00 00 00 00 00 00
  can1  284   [8]  C9 12 00 00 00 00 00 00
  can1  381   [2]  00 00
  can1  382   [2]  00 00
  can1  383   [2]  00 00
  can1  384   [2]  00 00
  can1  582   [8]  60 01 18 01 00 00 00 00
  can1  602   [8]  23 01 18 01 82 02 00 80
  can1  080   [0] 
  can1  284   [8]  C9 12 00 00 00 00 00 00
  can1  281   [8]  68 CD FF FF 00 00 00 00
  can1  283   [8]  99 17 00 00 00 00 00 00
  can1  381   [2]  00 00
  can1  382   [2]  00 00
  can1  384   [2]  00 00
  can1  383   [2]  04 00
  can1  602   [8]  2F 01 1A 00 00 00 00 00
  can1  582   [8]  60 01 1A 00 00 00 00 00
  can1  080   [0] 
  can1  283   [8]  99 17 00 00 00 00 00 00
  can1  284   [8]  C9 12 00 00 00 00 00 00
  can1  281   [8]  68 CD FF FF 00 00 00 00
  can1  381   [2]  00 00
  can1  382   [2]  00 00
  can1  383   [2]  00 00
  can1  384   [2]  00 00
  can1  602   [8]  2F 01 18 02 01 00 00 00
  can1  582   [8]  60 01 18 02 00 00 00 00
  can1  080   [0] 
  can1  284   [8]  C9 12 00 00 00 00 00 00
  can1  281   [8]  68 CD FF FF 00 00 00 00
  can1  283   [8]  99 17 00 00 00 00 00 00
  can1  381   [2]  00 00
  can1  382   [2]  00 00
  can1  383   [2]  00 00
  can1  384   [2]  00 00
  can1  602   [8]  23 01 1A 01 20 00 64 60
  can1  582   [8]  60 01 1A 01 00 00 00 00
  can1  080   [0] 
  can1  284   [8]  C9 12 00 00 00 00 00 00
  can1  281   [8]  68 CD FF FF 00 00 00 00
  can1  283   [8]  99 17 00 00 00 00 00 00
  can1  381   [2]  00 00
  can1  382   [2]  00 00
  can1  383   [2]  00 00
  can1  384   [2]  00 00
  can1  602   [8]  23 01 1A 02 20 00 6C 60
  can1  582   [8]  60 01 1A 02 00 00 00 00
  can1  080   [0] 
  can1  284   [8]  C9 12 00 00 00 00 00 00
  can1  281   [8]  67 CD FF FF 8E FD FF FF
  can1  283   [8]  99 17 00 00 00 00 00 00
  can1  381   [2]  00 00
  can1  382   [2]  00 00
  can1  383   [2]  00 00
  can1  384   [2]  00 00
  can1  582   [8]  60 01 1A 00 00 00 00 00
  can1  602   [8]  2F 01 1A 00 02 00 00 00
  can1  080   [0] 
  can1  284   [8]  C9 12 00 00 00 00 00 00
  can1  281   [8]  68 CD FF FF D1 00 00 00
  can1  283   [8]  99 17 00 00 00 00 00 00
  can1  382   [2]  04 00
  can1  383   [2]  00 00
  can1  381   [2]  FC FF
  can1  384   [2]  00 00
  can1  602   [8]  23 01 18 01 82 02 00 00
  can1  582   [8]  60 01 18 01 00 00 00 00
  can1  080   [0] 
  can1  281   [8]  68 CD FF FF 00 00 00 00
  can1  283   [8]  99 17 00 00 00 00 00 00
  can1  282   [8]  51 F4 FF FF 00 00 00 00
  can1  284   [8]  C9 12 00 00 00 00 00 00
  can1  381   [2]  00 00
  can1  382   [2]  00 00
  can1  383   [2]  00 00
  can1  384   [2]  00 00
  can1  602   [8]  23 02 18 01 82 03 00 80
  can1  582   [8]  60 02 18 01 00 00 00 00
  can1  080   [0] 
  can1  283   [8]  99 17 00 00 00 00 00 00
  can1  282   [8]  51 F4 FF FF 00 00 00 00
  can1  281   [8]  68 CD FF FF 00 00 00 00
  can1  284   [8]  C9 12 00 00 00 00 00 00
  can1  381   [2]  00 00
  can1  383   [2]  00 00
  can1  384   [2]  FC FF
  can1  080   [0] 
  can1  282   [8]  51 F4 FF FF 00 00 00 00
  can1  281   [8]  68 CD FF FF 00 00 00 00
  can1  283   [8]  99 17 00 00 00 00 00 00
  can1  284   [8]  C9 12 00 00 00 00 00 00
  can1  381   [2]  00 00
  can1  383   [2]  00 00
  can1  384   [2]  00 00
  can1  602   [8]  2F 02 1A 00 00 00 00 00
  can1  582   [8]  60 02 1A 00 00 00 00 00
  can1  080   [0] 
  can1  284   [8]  C9 12 00 00 00 00 00 00
  can1  281   [8]  68 CD FF FF 00 00 00 00
  can1  282   [8]  51 F4 FF FF 00 00 00 00
  can1  283   [8]  99 17 00 00 00 00 00 00
  can1  381   [2]  00 00
  can1  383   [2]  00 00
  can1  384   [2]  00 00
  can1  602   [8]  2F 02 18 02 01 00 00 00
  can1  582   [8]  60 02 18 02 00 00 00 00
  can1  080   [0] 
  can1  281   [8]  68 CD FF FF 00 00 00 00
  can1  282   [8]  51 F4 FF FF 00 00 00 00
  can1  283   [8]  99 17 00 00 00 00 00 00
  can1  284   [8]  C9 12 00 00 00 00 00 00
  can1  381   [2]  00 00
  can1  383   [2]  00 00
  can1  384   [2]  00 00
  can1  602   [8]  23 02 1A 01 10 00 77 60
  can1  582   [8]  60 02 1A 01 00 00 00 00
  can1  080   [0] 
  can1  281   [8]  68 CD FF FF 00 00 00 00
  can1  283   [8]  99 17 00 00 00 00 00 00
  can1  282   [8]  51 F4 FF FF 00 00 00 00
  can1  284   [8]  C9 12 00 00 00 00 00 00
  can1  381   [2]  00 00
  can1  383   [2]  00 00
  can1  384   [2]  00 00
  can1  602   [8]  2F 02 1A 00 01 00 00 00
  can1  582   [8]  60 02 1A 00 00 00 00 00
  can1  080   [0] 
  can1  281   [8]  68 CD FF FF 00 00 00 00
  can1  282   [8]  51 F4 FF FF 00 00 00 00
  can1  283   [8]  99 17 00 00 00 00 00 00
  can1  284   [8]  C9 12 00 00 00 00 00 00
  can1  381   [2]  00 00
  can1  383   [2]  00 00
  can1  384   [2]  00 00
  can1  602   [8]  23 02 18 01 82 03 00 00
  can1  582   [8]  60 02 18 01 00 00 00 00
  can1  080   [0] 
  can1  282   [8]  51 F4 FF FF 00 00 00 00
  can1  281   [8]  68 CD FF FF 00 00 00 00
  can1  283   [8]  99 17 00 00 00 00 00 00
  can1  284   [8]  C9 12 00 00 00 00 00 00
  can1  381   [2]  00 00
  can1  382   [2]  00 00
  can1  383   [2]  00 00
  can1  384   [2]  00 00
  can1  602   [8]  23 00 14 01 02 02 00 80
  can1  582   [8]  60 00 14 01 00 00 00 00
  can1  080   [0] 
  can1  281   [8]  68 CD FF FF 00 00 00 00
  can1  283   [8]  99 17 00 00 00 00 00 00
  can1  282   [8]  51 F4 FF FF 00 00 00 00
  can1  284   [8]  C9 12 00 00 00 00 00 00
  can1  381   [2]  00 00
  can1  382   [2]  00 00
  can1  383   [2]  04 00
  can1  384   [2]  00 00
  can1  602   [8]  2F 00 16 00 00 00 00 00
  can1  582   [8]  60 00 16 00 00 00 00 00
  can1  080   [0] 
  can1  281   [8]  68 CD FF FF 00 00 00 00
  can1  282   [8]  51 F4 FF FF 00 00 00 00
  can1  283   [8]  99 17 00 00 00 00 00 00
  can1  284   [8]  C9 12 00 00 00 00 00 00
  can1  381   [2]  00 00
  can1  382   [2]  04 00
  can1  383   [2]  00 00
  can1  384   [2]  00 00
  can1  602   [8]  2F 00 14 02 FF 00 00 00
  can1  582   [8]  60 00 14 02 00 00 00 00
  can1  080   [0] 
  can1  281   [8]  67 CD FF FF B8 F9 FF FF
  can1  282   [8]  51 F4 FF FF 00 00 00 00
  can1  283   [8]  99 17 00 00 00 00 00 00
  can1  284   [8]  C9 12 00 00 00 00 00 00
  can1  381   [2]  00 00
  can1  382   [2]  04 00
  can1  383   [2]  00 00
  can1  384   [2]  FC FF
  can1  602   [8]  23 00 16 01 10 00 40 60
  can1  582   [8]  60 00 16 01 00 00 00 00
  can1  080   [0] 
  can1  281   [8]  67 CD FF FF 5B FF FF FF
  can1  283   [8]  99 17 00 00 00 00 00 00
  can1  282   [8]  51 F4 FF FF 00 00 00 00
  can1  284   [8]  C9 12 00 00 00 00 00 00
  can1  381   [2]  00 00
  can1  382   [2]  00 00
  can1  383   [2]  FC FF
  can1  384   [2]  00 00
  can1  582   [8]  60 00 16 00 00 00 00 00
  can1  602   [8]  2F 00 16 00 01 00 00 00
  can1  080   [0] 
  can1  283   [8]  99 17 00 00 00 00 00 00
  can1  281   [8]  68 CD FF FF A1 FF FF FF
  can1  282   [8]  51 F4 FF FF 00 00 00 00
  can1  284   [8]  C9 12 00 00 00 00 00 00
  can1  381   [2]  00 00
  can1  382   [2]  00 00
  can1  383   [2]  00 00
  can1  384   [2]  FC FF
  can1  602   [8]  23 00 14 01 02 02 00 00
  can1  582   [8]  60 00 14 01 00 00 00 00
  can1  080   [0] 
  can1  283   [8]  99 17 00 00 00 00 00 00
  can1  282   [8]  51 F4 FF FF 00 00 00 00
  can1  281   [8]  68 CD FF FF 00 00 00 00
  can1  284   [8]  C9 12 00 00 00 00 00 00
  can1  381   [2]  00 00
  can1  382   [2]  00 00
  can1  383   [2]  00 00
  can1  384   [2]  00 00
  can1  080   [0] 
  can1  281   [8]  68 CD FF FF 00 00 00 00
  can1  282   [8]  51 F4 FF FF 00 00 00 00
  can1  283   [8]  99 17 00 00 00 00 00 00
  can1  284   [8]  C9 12 00 00 00 00 00 00
  can1  381   [2]  00 00
  can1  382   [2]  FC FF
  can1  383   [2]  00 00
  can1  384   [2]  00 00
  can1  602   [8]  23 01 14 01 02 03 00 80
  can1  582   [8]  60 01 14 01 00 00 00 00
  can1  080   [0] 
  can1  281   [8]  68 CD FF FF 00 00 00 00
  can1  283   [8]  99 17 00 00 00 00 00 00
  can1  282   [8]  51 F4 FF FF 00 00 00 00
  can1  284   [8]  C9 12 00 00 00 00 00 00
  can1  381   [2]  00 00
  can1  382   [2]  00 00
  can1  383   [2]  FC FF
  can1  384   [2]  FC FF
  can1  602   [8]  2F 01 16 00 00 00 00 00
  can1  582   [8]  60 01 16 00 00 00 00 00
  can1  080   [0] 
  can1  281   [8]  68 CD FF FF 73 03 00 00
  can1  282   [8]  51 F4 FF FF 00 00 00 00
  can1  283   [8]  99 17 00 00 00 00 00 00
  can1  284   [8]  C9 12 00 00 00 00 00 00
  can1  381   [2]  00 00
  can1  382   [2]  04 00
  can1  383   [2]  00 00
  can1  384   [2]  FC FF
  can1  602   [8]  2F 01 14 02 FF 00 00 00
  can1  582   [8]  60 01 14 02 00 00 00 00
  can1  080   [0] 
  can1  281   [8]  68 CD FF FF 00 00 00 00
  can1  283   [8]  99 17 00 00 00 00 00 00
  can1  282   [8]  51 F4 FF FF 00 00 00 00
  can1  284   [8]  C9 12 00 00 00 00 00 00
  can1  381   [2]  00 00
  can1  382   [2]  00 00
  can1  383   [2]  00 00
  can1  384   [2]  FC FF
  can1  602   [8]  23 01 16 01 20 00 7A 60
  can1  582   [8]  60 01 16 01 00 00 00 00
  can1  080   [0] 
  can1  283   [8]  99 17 00 00 00 00 00 00
  can1  281   [8]  68 CD FF FF 00 00 00 00
  can1  282   [8]  51 F4 FF FF 00 00 00 00
  can1  284   [8]  C9 12 00 00 00 00 00 00
  can1  381   [2]  00 00
  can1  382   [2]  00 00
  can1  383   [2]  00 00
  can1  384   [2]  00 00
  can1  602   [8]  2F 01 16 00 01 00 00 00
  can1  582   [8]  60 01 16 00 00 00 00 00
  can1  080   [0] 
  can1  282   [8]  51 F4 FF FF 00 00 00 00
  can1  281   [8]  68 CD FF FF 00 00 00 00
  can1  283   [8]  99 17 00 00 00 00 00 00
  can1  284   [8]  C9 12 00 00 00 00 00 00
  can1  381   [2]  00 00
  can1  382   [2]  00 00
  can1  383   [2]  00 00
  can1  384   [2]  00 00
  can1  602   [8]  23 01 14 01 02 03 00 00
  can1  582   [8]  60 01 14 01 00 00 00 00
  can1  080   [0] 
  can1  284   [8]  C9 12 00 00 00 00 00 00
  can1  281   [8]  68 CD FF FF 00 00 00 00
  can1  282   [8]  51 F4 FF FF 00 00 00 00
  can1  283   [8]  99 17 00 00 00 00 00 00
  can1  381   [2]  00 00
  can1  382   [2]  00 00
  can1  383   [2]  00 00
  can1  384   [2]  FC FF
  can1  602   [8]  23 02 14 01 02 04 00 80
  can1  582   [8]  60 02 14 01 00 00 00 00
  can1  080   [0] 
  can1  281   [8]  68 CD FF FF E3 FF FF FF
  can1  282   [8]  51 F4 FF FF 00 00 00 00
  can1  283   [8]  99 17 00 00 00 00 00 00
  can1  284   [8]  C9 12 00 00 00 00 00 00
  can1  381   [2]  00 00
  can1  382   [2]  00 00
  can1  383   [2]  00 00
  can1  384   [2]  04 00
  can1  764   [1]  05
  can1  602   [8]  2F 02 16 00 00 00 00 00
  can1  582   [8]  60 02 16 00 00 00 00 00
  can1  080   [0] 
  can1  283   [8]  99 17 00 00 00 00 00 00
  can1  281   [8]  68 CD FF FF 9A 00 00 00
  can1  282   [8]  51 F4 FF FF 00 00 00 00
  can1  284   [8]  C9 12 00 00 00 00 00 00
  can1  381   [2]  00 00
  can1  382   [2]  00 00
  can1  383   [2]  FC FF
  can1  384   [2]  FC FF
  can1  602   [8]  2F 02 14 02 FF 00 00 00
  can1  582   [8]  60 02 14 02 00 00 00 00
  can1  080   [0] 
  can1  283   [8]  99 17 00 00 00 00 00 00
  can1  281   [8]  68 CD FF FF 00 00 00 00
  can1  282   [8]  51 F4 FF FF 00 00 00 00
  can1  284   [8]  C9 12 00 00 00 00 00 00
  can1  383   [2]  00 00
  can1  381   [2]  04 00
  can1  382   [2]  04 00
  can1  384   [2]  00 00
  can1  602   [8]  23 02 16 01 20 00 FF 60
  can1  582   [8]  60 02 16 01 00 00 00 00
  can1  080   [0] 
  can1  282   [8]  51 F4 FF FF 00 00 00 00
  can1  281   [8]  68 CD FF FF 00 00 00 00
  can1  283   [8]  99 17 00 00 00 00 00 00
  can1  284   [8]  C9 12 00 00 00 00 00 00
  can1  381   [2]  00 00
  can1  382   [2]  04 00
  can1  383   [2]  00 00
  can1  384   [2]  FC FF
  can1  080   [0] 
  can1  283   [8]  99 17 00 00 00 00 00 00
  can1  281   [8]  68 CD FF FF 00 00 00 00
  can1  282   [8]  51 F4 FF FF 00 00 00 00
  can1  284   [8]  C9 12 00 00 00 00 00 00
  can1  381   [2]  00 00
  can1  382   [2]  04 00
  can1  383   [2]  00 00
  can1  384   [2]  00 00
  can1  602   [8]  2F 02 16 00 01 00 00 00
  can1  582   [8]  60 02 16 00 00 00 00 00
  can1  080   [0] 
  can1  283   [8]  99 17 00 00 00 00 00 00
  can1  281   [8]  68 CD FF FF 00 00 00 00
  can1  282   [8]  51 F4 FF FF 00 00 00 00
  can1  284   [8]  C9 12 00 00 00 00 00 00
  can1  382   [2]  00 00
  can1  381   [2]  FC FF
  can1  383   [2]  00 00
  can1  384   [2]  00 00
  can1  602   [8]  23 02 14 01 02 04 00 00
  can1  582   [8]  60 02 14 01 00 00 00 00
  can1  080   [0] 
  can1  283   [8]  99 17 00 00 00 00 00 00
  can1  281   [8]  68 CD FF FF D2 03 00 00
  can1  282   [8]  51 F4 FF FF 00 00 00 00
  can1  284   [8]  C9 12 00 00 00 00 00 00
  can1  382   [2]  00 00
  can1  381   [2]  FC FF
  can1  383   [2]  00 00
  can1  384   [2]  00 00
  can1  602   [8]  23 03 14 01 02 05 00 80
  can1  582   [8]  60 03 14 01 00 00 00 00
  can1  080   [0] 
  can1  281   [8]  68 CD FF FF 00 00 00 00
  can1  283   [8]  99 17 00 00 00 00 00 00
  can1  282   [8]  51 F4 FF FF 00 00 00 00
  can1  284   [8]  C9 12 00 00 00 00 00 00
  can1  381   [2]  00 00
  can1  382   [2]  04 00
  can1  383   [2]  00 00
  can1  384   [2]  FC FF
  can1  602   [8]  2F 03 16 00 00 00 00 00
  can1  582   [8]  60 03 16 00 00 00 00 00
  can1  080   [0] 
  can1  283   [8]  99 17 00 00 00 00 00 00
  can1  281   [8]  68 CD FF FF 00 00 00 00
  can1  282   [8]  51 F4 FF FF 00 00 00 00
  can1  284   [8]  C9 12 00 00 00 00 00 00
  can1  382   [2]  00 00
  can1  381   [2]  FC FF
  can1  383   [2]  00 00
  can1  384   [2]  00 00
  can1  582   [8]  60 03 14 02 00 00 00 00
  can1  602   [8]  2F 03 14 02 FF 00 00 00
  can1  080   [0] 
  can1  283   [8]  99 17 00 00 00 00 00 00
  can1  281   [8]  68 CD FF FF 00 00 00 00
  can1  282   [8]  51 F4 FF FF 00 00 00 00
  can1  284   [8]  C9 12 00 00 00 00 00 00
  can1  381   [2]  00 00
  can1  382   [2]  00 00
  can1  383   [2]  00 00
  can1  384   [2]  FC FF
  can1  582   [8]  60 03 16 01 00 00 00 00
  can1  602   [8]  23 03 16 01 10 00 71 60
  can1  080   [0] 
  can1  281   [8]  68 CD FF FF 00 00 00 00
  can1  283   [8]  99 17 00 00 00 00 00 00
  can1  282   [8]  51 F4 FF FF 00 00 00 00
  can1  284   [8]  C9 12 00 00 00 00 00 00
  can1  381   [2]  00 00
  can1  382   [2]  00 00
  can1  383   [2]  00 00
  can1  384   [2]  00 00
  can1  602   [8]  2F 03 16 00 01 00 00 00
  can1  582   [8]  60 03 16 00 00 00 00 00
  can1  080   [0] 
  can1  284   [8]  C9 12 00 00 00 00 00 00
  can1  281   [8]  68 CD FF FF 00 00 00 00
  can1  282   [8]  51 F4 FF FF 00 00 00 00
  can1  283   [8]  99 17 00 00 00 00 00 00
  can1  381   [2]  00 00
  can1  382   [2]  00 00
  can1  383   [2]  00 00
  can1  384   [2]  00 00
  can1  602   [8]  23 03 14 01 02 05 00 00
  can1  582   [8]  60 03 14 01 00 00 00 00
  can1  080   [0] 
  can1  281   [8]  68 CD FF FF 00 00 00 00
  can1  283   [8]  99 17 00 00 00 00 00 00
  can1  282   [8]  51 F4 FF FF 00 00 00 00
  can1  284   [8]  C9 12 00 00 00 00 00 00
  can1  381   [2]  00 00
  can1  382   [2]  00 00
  can1  383   [2]  00 00
  can1  384   [2]  00 00
  can1  603   [8]  23 00 18 01 83 01 00 80
  can1  583   [8]  60 00 18 01 00 00 00 00
  can1  080   [0] 
  can1  283   [8]  99 17 00 00 00 00 00 00
  can1  282   [8]  51 F4 FF FF 00 00 00 00
  can1  281   [8]  68 CD FF FF 00 00 00 00
  can1  284   [8]  C9 12 00 00 00 00 00 00
  can1  381   [2]  00 00
  can1  382   [2]  00 00
  can1  383   [2]  00 00
  can1  384   [2]  00 00
  can1  603   [8]  2F 00 1A 00 00 00 00 00
  can1  583   [8]  60 00 1A 00 00 00 00 00
  can1  080   [0] 
  can1  283   [8]  99 17 00 00 00 00 00 00
  can1  281   [8]  68 CD FF FF 00 00 00 00
  can1  282   [8]  51 F4 FF FF 00 00 00 00
  can1  284   [8]  C9 12 00 00 00 00 00 00
  can1  381   [2]  00 00
  can1  382   [2]  00 00
  can1  383   [2]  00 00
  can1  384   [2]  FC FF
  can1  603   [8]  2F 00 18 02 FF 00 00 00
  can1  583   [8]  60 00 18 02 00 00 00 00
  can1  080   [0] 
  can1  283   [8]  99 17 00 00 00 00 00 00
  can1  282   [8]  51 F4 FF FF 00 00 00 00
  can1  281   [8]  68 CD FF FF F9 00 00 00
  can1  284   [8]  C9 12 00 00 00 00 00 00
  can1  381   [2]  00 00
  can1  382   [2]  04 00
  can1  383   [2]  00 00
  can1  384   [2]  00 00
  can1  603   [8]  23 00 1A 01 10 00 41 60
  can1  583   [8]  60 00 1A 01 00 00 00 00
  can1  080   [0] 
  can1  283   [8]  99 17 00 00 00 00 00 00
  can1  282   [8]  51 F4 FF FF 00 00 00 00
  can1  281   [8]  68 CD FF FF 00 00 00 00
  can1  284   [8]  C9 12 00 00 00 00 00 00
  can1  382   [2]  FC FF
  can1  381   [2]  FC FF
  can1  383   [2]  00 00
  can1  384   [2]  00 00
  can1  603   [8]  2F 00 1A 00 01 00 00 00
  can1  583   [8]  60 00 1A 00 00 00 00 00
  can1  080   [0] 
  can1  282   [8]  51 F4 FF FF 00 00 00 00
  can1  281   [8]  68 CD FF FF 00 00 00 00
  can1  283   [8]  99 17 00 00 00 00 00 00
  can1  284   [8]  C9 12 00 00 00 00 00 00
  can1  381   [2]  00 00
  can1  382   [2]  04 00
  can1  383   [2]  00 00
  can1  384   [2]  00 00
  can1  080   [0] 
  can1  283   [8]  99 17 00 00 00 00 00 00
  can1  282   [8]  51 F4 FF FF 00 00 00 00
  can1  281   [8]  68 CD FF FF 00 00 00 00
  can1  284   [8]  C9 12 00 00 00 00 00 00
  can1  381   [2]  00 00
  can1  382   [2]  00 00
  can1  383   [2]  00 00
  can1  384   [2]  00 00
  can1  603   [8]  23 00 18 01 83 01 00 00
  can1  583   [8]  60 00 18 01 00 00 00 00
  can1  080   [0] 
  can1  283   [8]  99 17 00 00 00 00 00 00
  can1  282   [8]  51 F4 FF FF 00 00 00 00
  can1  281   [8]  68 CD FF FF 00 00 00 00
  can1  284   [8]  C9 12 00 00 00 00 00 00
  can1  382   [2]  00 00
  can1  381   [2]  04 00
  can1  383   [2]  00 00
  can1  384   [2]  00 00
  can1  603   [8]  23 01 18 01 83 02 00 80
  can1  583   [8]  60 01 18 01 00 00 00 00
  can1  080   [0] 
  can1  282   [8]  51 F4 FF FF 00 00 00 00
  can1  281   [8]  68 CD FF FF 00 00 00 00
  can1  284   [8]  C9 12 00 00 00 00 00 00
  can1  381   [2]  00 00
  can1  382   [2]  FC FF
  can1  383   [2]  04 00
  can1  384   [2]  00 00
  can1  603   [8]  2F 01 1A 00 00 00 00 00
  can1  583   [8]  60 01 1A 00 00 00 00 00
  can1  080   [0] 
  can1  282   [8]  51 F4 FF FF 00 00 00 00
  can1  281   [8]  68 CD FF FF 3F 02 00 00
  can1  284   [8]  C9 12 00 00 00 00 00 00
  can1  381   [2]  00 00
  can1  382   [2]  00 00
  can1  383   [2]  00 00
  can1  384   [2]  00 00
  can1  603   [8]  2F 01 18 02 01 00 00 00
  can1  583   [8]  60 01 18 02 00 00 00 00
  can1  080   [0] 
  can1  282   [8]  51 F4 FF FF 00 00 00 00
  can1  281   [8]  68 CD FF FF 00 00 00 00
  can1  284   [8]  C9 12 00 00 00 00 00 00
  can1  381   [2]  00 00
  can1  382   [2]  00 00
  can1  383   [2]  FC FF
  can1  384   [2]  00 00
  can1  603   [8]  23 01 1A 01 20 00 64 60
  can1  583   [8]  60 01 1A 01 00 00 00 00
  can1  080   [0] 
  can1  282   [8]  51 F4 FF FF 00 00 00 00
  can1  281   [8]  68 CD FF FF 00 00 00 00
  can1  284   [8]  C9 12 00 00 00 00 00 00
  can1  381   [2]  00 00
  can1  383   [2]  04 00
  can1  384   [2]  00 00
  can1  382   [2]  FC FF
  can1  603   [8]  23 01 1A 02 20 00 6C 60
  can1  583   [8]  60 01 1A 02 00 00 00 00
  can1  080   [0] 
  can1  282   [8]  51 F4 FF FF 00 00 00 00
  can1  281   [8]  68 CD FF FF 36 FD FF FF
  can1  284   [8]  C9 12 00 00 00 00 00 00
  can1  381   [2]  00 00
  can1  382   [2]  00 00
  can1  383   [2]  04 00
  can1  384   [2]  00 00
  can1  603   [8]  2F 01 1A 00 02 00 00 00
  can1  583   [8]  60 01 1A 00 00 00 00 00
  can1  080   [0] 
  can1  282   [8]  51 F4 FF FF 00 00 00 00
  can1  281   [8]  68 CD FF FF 75 00 00 00
  can1  284   [8]  C9 12 00 00 00 00 00 00
  can1  382   [2]  00 00
  can1  381   [2]  00 00
  can1  383   [2]  00 00
  can1  384   [2]  04 00
  can1  603   [8]  23 01 18 01 83 02 00 00
  can1  583   [8]  60 01 18 01 00 00 00 00
  can1  080   [0] 
  can1  282   [8]  51 F4 FF FF 00 00 00 00
  can1  281   [8]  68 CD FF FF 09 FA FF FF
  can1  283   [8]  99 17 00 00 00 00 00 00
  can1  284   [8]  C9 12 00 00 00 00 00 00
  can1  381   [2]  00 00
  can1  382   [2]  00 00
  can1  383   [2]  00 00
  can1  384   [2]  00 00
  can1  603   [8]  23 02 18 01 83 03 00 80
  can1  583   [8]  60 02 18 01 00 00 00 00
  can1  080   [0] 
  can1  282   [8]  51 F4 FF FF 00 00 00 00
  can1  281   [8]  68 CD FF FF 00 00 00 00
  can1  283   [8]  99 17 00 00 00 00 00 00
  can1  284   [8]  C9 12 00 00 00 00 00 00
  can1  381   [2]  00 00
  can1  382   [2]  04 00
  can1  384   [2]  00 00
  can1  603   [8]  2F 02 1A 00 00 00 00 00
  can1  583   [8]  60 02 1A 00 00 00 00 00
  can1  080   [0] 
  can1  282   [8]  51 F4 FF FF 00 00 00 00
  can1  281   [8]  68 CD FF FF C2 01 00 00
  can1  283   [8]  99 17 00 00 00 00 00 00
  can1  284   [8]  C9 12 00 00 00 00 00 00
  can1  381   [2]  00 00
  can1  382   [2]  00 00
  can1  384   [2]  00 00
  can1  603   [8]  2F 02 18 02 01 00 00 00
  can1  583   [8]  60 02 18 02 00 00 00 00
  can1  080   [0] 
  can1  281   [8]  68 CD FF FF A3 FC FF FF
  can1  282   [8]  51 F4 FF FF 00 00 00 00
  can1  283   [8]  99 17 00 00 00 00 00 00
  can1  284   [8]  C9 12 00 00 00 00 00 00
  can1  381   [2]  04 00
  can1  382   [2]  FC FF
  can1  384   [2]  00 00
  can1  080   [0] 
  can1  282   [8]  51 F4 FF FF 00 00 00 00
  can1  281   [8]  68 CD FF FF 00 00 00 00
  can1  283   [8]  99 17 00 00 00 00 00 00
  can1  284   [8]  C9 12 00 00 00 00 00 00
  can1  381   [2]  00 00
  can1  382   [2]  00 00
  can1  384   [2]  FC FF
  can1  603   [8]  23 02 1A 01 10 00 77 60
  can1  583   [8]  60 02 1A 01 00 00 00 00
  can1  080   [0] 
  can1  282   [8]  51 F4 FF FF 00 00 00 00
  can1  281   [8]  68 CD FF FF 00 00 00 00
  can1  283   [8]  99 17 00 00 00 00 00 00
  can1  284   [8]  C9 12 00 00 00 00 00 00
  can1  381   [2]  00 00
  can1  382   [2]  FC FF
  can1  384   [2]  FC FF
  can1  603   [8]  2F 02 1A 00 01 00 00 00
  can1  583   [8]  60 02 1A 00 00 00 00 00
  can1  080   [0] 
  can1  282   [8]  51 F4 FF FF 00 00 00 00
  can1  281   [8]  68 CD FF FF CA F8 FF FF
  can1  283   [8]  99 17 00 00 00 00 00 00
  can1  284   [8]  C9 12 00 00 00 00 00 00
  can1  381   [2]  00 00
  can1  382   [2]  00 00
  can1  384   [2]  00 00
  can1  603   [8]  23 02 18 01 83 03 00 00
  can1  583   [8]  60 02 18 01 00 00 00 00
  can1  080   [0] 
  can1  282   [8]  51 F4 FF FF 00 00 00 00
  can1  281   [8]  68 CD FF FF 9B F9 FF FF
  can1  283   [8]  99 17 00 00 00 00 00 00
  can1  284   [8]  C9 12 00 00 00 00 00 00
  can1  381   [2]  00 00
  can1  382   [2]  00 00
  can1  383   [2]  00 00
  can1  384   [2]  00 00
  can1  603   [8]  23 00 14 01 03 02 00 80
  can1  583   [8]  60 00 14 01 00 00 00 00
  can1  080   [0] 
  can1  282   [8]  51 F4 FF FF 00 00 00 00
  can1  281   [8]  68 CD FF FF 00 00 00 00
  can1  283   [8]  99 17 00 00 00 00 00 00
  can1  284   [8]  C9 12 00 00 00 00 00 00
  can1  381   [2]  00 00
  can1  382   [2]  00 00
  can1  383   [2]  00 00
  can1  384   [2]  00 00
  can1  603   [8]  2F 00 16 00 00 00 00 00
  can1  583   [8]  60 00 16 00 00 00 00 00
  can1  080   [0] 
  can1  283   [8]  99 17 00 00 00 00 00 00
  can1  281   [8]  68 CD FF FF 00 00 00 00
  can1  282   [8]  51 F4 FF FF 00 00 00 00
  can1  284   [8]  C9 12 00 00 00 00 00 00
  can1  381   [2]  00 00
  can1  382   [2]  00 00
  can1  383   [2]  00 00
  can1  384   [2]  00 00
  can1  603   [8]  2F 00 14 02 FF 00 00 00
  can1  583   [8]  60 00 14 02 00 00 00 00
  can1  080   [0] 
  can1  282   [8]  51 F4 FF FF 00 00 00 00
  can1  281   [8]  68 CD FF FF 00 00 00 00
  can1  283   [8]  99 17 00 00 00 00 00 00
  can1  284   [8]  C9 12 00 00 00 00 00 00
  can1  382   [2]  FC FF
  can1  381   [2]  FC FF
  can1  383   [2]  00 00
  can1  384   [2]  00 00
  can1  583   [8]  60 00 16 01 00 00 00 00
  can1  603   [8]  23 00 16 01 10 00 40 60
  can1  080   [0] 
  can1  282   [8]  51 F4 FF FF 00 00 00 00
  can1  281   [8]  68 CD FF FF 00 00 00 00
  can1  283   [8]  99 17 00 00 00 00 00 00
  can1  284   [8]  C9 12 00 00 00 00 00 00
  can1  381   [2]  00 00
  can1  382   [2]  00 00
  can1  383   [2]  00 00
  can1  384   [2]  04 00
  can1  603   [8]  2F 00 16 00 01 00 00 00
  can1  583   [8]  60 00 16 00 00 00 00 00
  can1  080   [0] 
  can1  282   [8]  51 F4 FF FF 00 00 00 00
  can1  281   [8]  68 CD FF FF 00 00 00 00
  can1  283   [8]  99 17 00 00 00 00 00 00
  can1  284   [8]  C9 12 00 00 00 00 00 00
  can1  381   [2]  00 00
  can1  382   [2]  FC FF
  can1  383   [2]  04 00
  can1  384   [2]  00 00
  can1  603   [8]  23 00 14 01 03 02 00 00
  can1  765   [1]  05
  can1  583   [8]  60 00 14 01 00 00 00 00
  can1  080   [0] 
  can1  282   [8]  51 F4 FF FF 00 00 00 00
  can1  281   [8]  68 CD FF FF 50 FF FF FF
  can1  283   [8]  99 17 00 00 00 00 00 00
  can1  284   [8]  C9 12 00 00 00 00 00 00
  can1  381   [2]  00 00
  can1  382   [2]  00 00
  can1  383   [2]  00 00
  can1  384   [2]  00 00
  can1  603   [8]  23 01 14 01 03 03 00 80
  can1  583   [8]  60 01 14 01 00 00 00 00
  can1  080   [0] 
  can1  282   [8]  51 F4 FF FF 00 00 00 00
  can1  281   [8]  68 CD FF FF 00 00 00 00
  can1  283   [8]  99 17 00 00 00 00 00 00
  can1  284   [8]  C8 12 00 00 45 FD FF FF
  can1  381   [2]  00 00
  can1  382   [2]  00 00
  can1  383   [2]  00 00
  can1  384   [2]  FC FF
  can1  603   [8]  2F 01 16 00 00 00 00 00
  can1  583   [8]  60 01 16 00 00 00 00 00
  can1  080   [0] 
  can1  281   [8]  68 CD FF FF 1E 01 00 00
  can1  283   [8]  99 17 00 00 00 00 00 00
  can1  282   [8]  51 F4 FF FF 00 00 00 00
  can1  284   [8]  C8 12 00 00 00 00 00 00
  can1  381   [2]  00 00
  can1  382   [2]  04 00
  can1  383   [2]  00 00
  can1  384   [2]  00 00
  can1  080   [0] 
  can1  282   [8]  51 F4 FF FF 00 00 00 00
  can1  281   [8]  68 CD FF FF 36 FE FF FF
  can1  283   [8]  99 17 00 00 00 00 00 00
  can1  284   [8]  C8 12 00 00 00 00 00 00
  can1  381   [2]  00 00
  can1  382   [2]  04 00
  can1  383   [2]  00 00
  can1  384   [2]  00 00
  can1  603   [8]  2F 01 14 02 FF 00 00 00
  can1  583   [8]  60 01 14 02 00 00 00 00
  can1  080   [0] 
  can1  282   [8]  51 F4 FF FF 00 00 00 00
  can1  281   [8]  68 CD FF FF 00 00 00 00
  can1  283   [8]  99 17 00 00 00 00 00 00
  can1  284   [8]  C8 12 00 00 00 00 00 00
  can1  381   [2]  00 00
  can1  382   [2]  FC FF
  can1  383   [2]  FC FF
  can1  384   [2]  00 00
  can1  603   [8]  23 01 16 01 20 00 7A 60
  can1  583   [8]  60 01 16 01 00 00 00 00
  can1  080   [0] 
  can1  282   [8]  51 F4 FF FF 00 00 00 00
  can1  281   [8]  68 CD FF FF 00 00 00 00
  can1  283   [8]  99 17 00 00 00 00 00 00
  can1  284   [8]  C8 12 00 00 00 00 00 00
  can1  381   [2]  FC FF
  can1  382   [2]  00 00
  can1  383   [2]  00 00
  can1  384   [2]  00 00
  can1  603   [8]  2F 01 16 00 01 00 00 00
  can1  583   [8]  60 01 16 00 00 00 00 00
  can1  080   [0] 
  can1  282   [8]  51 F4 FF FF 00 00 00 00
  can1  281   [8]  68 CD FF FF 7F FE FF FF
  can1  283   [8]  99 17 00 00 00 00 00 00
  can1  284   [8]  C8 12 00 00 00 00 00 00
  can1  381   [2]  00 00
  can1  382   [2]  04 00
  can1  383   [2]  00 00
  can1  384   [2]  FC FF
  can1  603   [8]  23 01 14 01 03 03 00 00
  can1  583   [8]  60 01 14 01 00 00 00 00
  can1  080   [0] 
  can1  282   [8]  51 F4 FF FF 00 00 00 00
  can1  281   [8]  68 CD FF FF 00 00 00 00
  can1  283   [8]  99 17 00 00 00 00 00 00
  can1  284   [8]  C8 12 00 00 00 00 00 00
  can1  381   [2]  00 00
  can1  382   [2]  00 00
  can1  383   [2]  00 00
  can1  384   [2]  00 00
  can1  583   [8]  60 02 14 01 00 00 00 00
  can1  603   [8]  23 02 14 01 03 04 00 80
  can1  080   [0] 
  can1  282   [8]  51 F4 FF FF 00 00 00 00
  can1  281   [8]  68 CD FF FF 00 00 00 00
  can1  283   [8]  99 17 00 00 00 00 00 00
  can1  284   [8]  C8 12 00 00 00 00 00 00
  can1  381   [2]  00 00
  can1  382   [2]  00 00
  can1  383   [2]  00 00
  can1  384   [2]  FC FF
  can1  603   [8]  2F 02 16 00 00 00 00 00
  can1  583   [8]  60 02 16 00 00 00 00 00
  can1  080   [0] 
  can1  283   [8]  99 17 00 00 00 00 00 00
  can1  282   [8]  51 F4 FF FF 00 00 00 00
  can1  281   [8]  68 CD FF FF 00 00 00 00
  can1  284   [8]  C8 12 00 00 00 00 00 00
  can1  381   [2]  00 00
  can1  382   [2]  00 00
  can1  383   [2]  00 00
  can1  384   [2]  00 00
  can1  603   [8]  2F 02 14 02 FF 00 00 00
  can1  583   [8]  60 02 14 02 00 00 00 00
  can1  080   [0] 
  can1  282   [8]  51 F4 FF FF 00 00 00 00
  can1  281   [8]  68 CD FF FF 47 04 00 00
  can1  283   [8]  99 17 00 00 00 00 00 00
  can1  284   [8]  C8 12 00 00 00 00 00 00
  can1  381   [2]  00 00
  can1  382   [2]  04 00
  can1  383   [2]  00 00
  can1  384   [2]  00 00
  can1  603   [8]  23 02 16 01 20 00 FF 60
  can1  583   [8]  60 02 16 01 00 00 00 00
  can1  080   [0] 
  can1  282   [8]  51 F4 FF FF 00 00 00 00
  can1  281   [8]  68 CD FF FF 2C 00 00 00
  can1  283   [8]  99 17 00 00 00 00 00 00
  can1  284   [8]  C8 12 00 00 00 00 00 00
  can1  381   [2]  00 00
  can1  382   [2]  00 00
  can1  383   [2]  00 00
  can1  384   [2]  FC FF
  can1  603   [8]  2F 02 16 00 01 00 00 00
  can1  583   [8]  60 02 16 00 00 00 00 00
  can1  080   [0] 
  can1  284   [8]  C8 12 00 00 00 00 00 00
  can1  281   [8]  68 CD FF FF 00 00 00 00
  can1  282   [8]  51 F4 FF FF 00 00 00 00
  can1  283   [8]  99 17 00 00 00 00 00 00
  can1  381   [2]  FC FF
  can1  382   [2]  00 00
  can1  383   [2]  00 00
  can1  384   [2]  00 00
  can1  583   [8]  60 02 14 01 00 00 00 00
  can1  603   [8]  23 02 14 01 03 04 00 00
  can1  080   [0] 
  can1  284   [8]  C8 12 00 00 00 00 00 00
  can1  281   [8]  68 CD FF FF 00 00 00 00
  can1  282   [8]  51 F4 FF FF 00 00 00 00
  can1  283   [8]  99 17 00 00 00 00 00 00
  can1  381   [2]  FC FF
  can1  382   [2]  00 00
  can1  383   [2]  00 00
  can1  384   [2]  00 00
  can1  603   [8]  23 03 14 01 03 05 00 80
  can1  583   [8]  60 03 14 01 00 00 00 00
  can1  080   [0] 
  can1  284   [8]  C8 12 00 00 00 00 00 00
  can1  281   [8]  68 CD FF FF 00 00 00 00
  can1  282   [8]  51 F4 FF FF 00 00 00 00
  can1  283   [8]  99 17 00 00 00 00 00 00
  can1  381   [2]  00 00
  can1  382   [2]  04 00
  can1  383   [2]  00 00
  can1  384   [2]  FC FF
  can1  603   [8]  2F 03 16 00 00 00 00 00
  can1  583   [8]  60 03 16 00 00 00 00 00
  can1  080   [0] 
  can1  283   [8]  99 17 00 00 00 00 00 00
  can1  281   [8]  68 CD FF FF 00 00 00 00
  can1  282   [8]  51 F4 FF FF 00 00 00 00
  can1  284   [8]  C8 12 00 00 00 00 00 00
  can1  381   [2]  00 00
  can1  382   [2]  04 00
  can1  383   [2]  00 00
  can1  384   [2]  FC FF
  can1  764   [1]  05
  can1  080   [0] 
  can1  282   [8]  51 F4 FF FF 00 00 00 00
  can1  281   [8]  68 CD FF FF 00 00 00 00
  can1  283   [8]  99 17 00 00 00 00 00 00
  can1  284   [8]  C8 12 00 00 00 00 00 00
  can1  381   [2]  00 00
  can1  382   [2]  FC FF
  can1  383   [2]  00 00
  can1  384   [2]  00 00
  can1  603   [8]  2F 03 14 02 FF 00 00 00
  can1  583   [8]  60 03 14 02 00 00 00 00
  can1  080   [0] 
  can1  284   [8]  C8 12 00 00 00 00 00 00
  can1  281   [8]  68 CD FF FF 00 00 00 00
  can1  282   [8]  51 F4 FF FF 00 00 00 00
  can1  283   [8]  99 17 00 00 00 00 00 00
  can1  381   [2]  00 00
  can1  382   [2]  00 00
  can1  383   [2]  00 00
  can1  384   [2]  00 00
  can1  603   [8]  23 03 16 01 10 00 71 60
  can1  583   [8]  60 03 16 01 00 00 00 00
  can1  080   [0] 
  can1  282   [8]  51 F4 FF FF 00 00 00 00
  can1  281   [8]  68 CD FF FF 00 00 00 00
  can1  283   [8]  99 17 00 00 00 00 00 00
  can1  284   [8]  C8 12 00 00 00 00 00 00
  can1  381   [2]  00 00
  can1  382   [2]  00 00
  can1  383   [2]  00 00
  can1  384   [2]  00 00
  can1  603   [8]  2F 03 16 00 01 00 00 00
  can1  583   [8]  60 03 16 00 00 00 00 00
  can1  080   [0] 
  can1  284   [8]  C8 12 00 00 00 00 00 00
  can1  281   [8]  68 CD FF FF 00 00 00 00
  can1  282   [8]  51 F4 FF FF 00 00 00 00
  can1  283   [8]  99 17 00 00 00 00 00 00
  can1  381   [2]  00 00
  can1  382   [2]  00 00
  can1  383   [2]  00 00
  can1  384   [2]  04 00
  can1  603   [8]  23 03 14 01 03 05 00 00
  can1  583   [8]  60 03 14 01 00 00 00 00
  can1  080   [0] 
  can1  282   [8]  51 F4 FF FF 00 00 00 00
  can1  281   [8]  68 CD FF FF 00 00 00 00
  can1  283   [8]  99 17 00 00 00 00 00 00
  can1  284   [8]  C8 12 00 00 00 00 00 00
  can1  381   [2]  00 00
  can1  382   [2]  00 00
  can1  383   [2]  00 00
  can1  384   [2]  00 00
  can1  584   [8]  60 00 18 01 00 00 00 00
  can1  604   [8]  23 00 18 01 84 01 00 80
  can1  080   [0] 
  can1  284   [8]  C8 12 00 00 00 00 00 00
  can1  281   [8]  68 CD FF FF 00 00 00 00
  can1  282   [8]  51 F4 FF FF 00 00 00 00
  can1  283   [8]  99 17 00 00 00 00 00 00
  can1  381   [2]  00 00
  can1  382   [2]  00 00
  can1  383   [2]  00 00
  can1  384   [2]  00 00
  can1  604   [8]  2F 00 1A 00 00 00 00 00
  can1  584   [8]  60 00 1A 00 00 00 00 00
  can1  080   [0] 
  can1  282   [8]  51 F4 FF FF 00 00 00 00
  can1  281   [8]  68 CD FF FF 00 00 00 00
  can1  283   [8]  99 17 00 00 00 00 00 00
  can1  284   [8]  C8 12 00 00 00 00 00 00
  can1  381   [2]  00 00
  can1  382   [2]  00 00
  can1  383   [2]  00 00
  can1  384   [2]  04 00
  can1  604   [8]  2F 00 18 02 FF 00 00 00
  can1  584   [8]  60 00 18 02 00 00 00 00
  can1  080   [0] 
  can1  282   [8]  51 F4 FF FF 00 00 00 00
  can1  281   [8]  68 CD FF FF 00 00 00 00
  can1  283   [8]  99 17 00 00 00 00 00 00
  can1  284   [8]  C8 12 00 00 00 00 00 00
  can1  381   [2]  00 00
  can1  382   [2]  00 00
  can1  383   [2]  00 00
  can1  384   [2]  00 00
  can1  604   [8]  23 00 1A 01 10 00 41 60
  can1  584   [8]  60 00 1A 01 00 00 00 00
  can1  080   [0] 
  can1  281   [8]  68 CD FF FF 00 00 00 00
  can1  283   [8]  99 17 00 00 00 00 00 00
  can1  282   [8]  51 F4 FF FF 00 00 00 00
  can1  284   [8]  C8 12 00 00 00 00 00 00
  can1  381   [2]  00 00
  can1  382   [2]  00 00
  can1  383   [2]  00 00
  can1  384   [2]  00 00
  can1  604   [8]  2F 00 1A 00 01 00 00 00
  can1  584   [8]  60 00 1A 00 00 00 00 00
  can1  080   [0] 
  can1  282   [8]  51 F4 FF FF 00 00 00 00
  can1  281   [8]  68 CD FF FF 00 00 00 00
  can1  283   [8]  99 17 00 00 00 00 00 00
  can1  284   [8]  C8 12 00 00 00 00 00 00
  can1  381   [2]  00 00
  can1  382   [2]  00 00
  can1  383   [2]  00 00
  can1  384   [2]  FC FF
  can1  604   [8]  23 00 18 01 84 01 00 00
  can1  584   [8]  60 00 18 01 00 00 00 00
  can1  080   [0] 
  can1  281   [8]  68 CD FF FF 00 00 00 00
  can1  282   [8]  51 F4 FF FF 00 00 00 00
  can1  283   [8]  99 17 00 00 00 00 00 00
  can1  284   [8]  C8 12 00 00 00 00 00 00
  can1  381   [2]  00 00
  can1  382   [2]  00 00
  can1  383   [2]  00 00
  can1  384   [2]  00 00
  can1  604   [8]  23 01 18 01 84 02 00 80
  can1  584   [8]  60 01 18 01 00 00 00 00
  can1  080   [0] 
  can1  281   [8]  68 CD FF FF 00 00 00 00
  can1  283   [8]  99 17 00 00 00 00 00 00
  can1  282   [8]  51 F4 FF FF 00 00 00 00
  can1  381   [2]  00 00
  can1  383   [2]  00 00
  can1  384   [2]  FC FF
  can1  382   [2]  04 00
  can1  080   [0] 
  can1  283   [8]  99 17 00 00 00 00 00 00
  can1  281   [8]  68 CD FF FF 00 00 00 00
  can1  282   [8]  51 F4 FF FF 00 00 00 00
  can1  381   [2]  00 00
  can1  382   [2]  00 00
  can1  383   [2]  00 00
  can1  384   [2]  00 00
  can1  604   [8]  2F 01 1A 00 00 00 00 00
  can1  584   [8]  60 01 1A 00 00 00 00 00
  can1  080   [0] 
  can1  281   [8]  68 CD FF FF 00 00 00 00
  can1  282   [8]  51 F4 FF FF 00 00 00 00
  can1  283   [8]  99 17 00 00 00 00 00 00
  can1  381   [2]  00 00
  can1  382   [2]  00 00
  can1  383   [2]  00 00
  can1  384   [2]  00 00
  can1  604   [8]  2F 01 18 02 01 00 00 00
  can1  584   [8]  60 01 18 02 00 00 00 00
  can1  080   [0] 
  can1  281   [8]  68 CD FF FF 00 00 00 00
  can1  282   [8]  51 F4 FF FF 00 00 00 00
  can1  283   [8]  99 17 00 00 00 00 00 00
  can1  381   [2]  00 00
  can1  382   [2]  00 00
  can1  383   [2]  00 00
  can1  384   [2]  00 00
  can1  604   [8]  23 01 1A 01 20 00 64 60
  can1  584   [8]  60 01 1A 01 00 00 00 00
  can1  080   [0] 
  can1  281   [8]  68 CD FF FF E3 FF FF FF
  can1  283   [8]  99 17 00 00 00 00 00 00
  can1  282   [8]  51 F4 FF FF 00 00 00 00
  can1  381   [2]  00 00
  can1  383   [2]  00 00
  can1  384   [2]  FC FF
  can1  382   [2]  FC FF
  can1  604   [8]  23 01 1A 02 20 00 6C 60
  can1  584   [8]  60 01 1A 02 00 00 00 00
  can1  080   [0] 
  can1  283   [8]  99 17 00 00 00 00 00 00
  can1  281   [8]  68 CD FF FF 00 00 00 00
  can1  282   [8]  51 F4 FF FF 00 00 00 00
  can1  384   [2]  04 00
  can1  382   [2]  00 00
  can1  383   [2]  04 00
  can1  381   [2]  FC FF
  can1  604   [8]  2F 01 1A 00 02 00 00 00
  can1  584   [8]  60 01 1A 00 00 00 00 00
  can1  080   [0] 
  can1  281   [8]  68 CD FF FF AC 00 00 00
  can1  282   [8]  51 F4 FF FF 00 00 00 00
  can1  283   [8]  99 17 00 00 00 00 00 00
  can1  382   [2]  00 00
  can1  383   [2]  00 00
  can1  381   [2]  FC FF
  can1  384   [2]  FC FF
  can1  584   [8]  60 01 18 01 00 00 00 00
  can1  604   [8]  23 01 18 01 84 02 00 00
  can1  080   [0] 
  can1  283   [8]  99 17 00 00 00 00 00 00
  can1  282   [8]  51 F4 FF FF 00 00 00 00
  can1  281   [8]  68 CD FF FF 00 00 00 00
  can1  284   [8]  C8 12 00 00 00 00 00 00
  can1  381   [2]  00 00
  can1  382   [2]  04 00
  can1  383   [2]  00 00
  can1  384   [2]  00 00
  can1  584   [8]  60 02 18 01 00 00 00 00
  can1  604   [8]  23 02 18 01 84 03 00 80
  can1  080   [0] 
  can1  283   [8]  99 17 00 00 00 00 00 00
  can1  281   [8]  68 CD FF FF 00 00 00 00
  can1  282   [8]  51 F4 FF FF 00 00 00 00
  can1  284   [8]  C8 12 00 00 00 00 00 00
  can1  381   [2]  00 00
  can1  382   [2]  00 00
  can1  383   [2]  00 00
  can1  604   [8]  2F 02 1A 00 00 00 00 00
  can1  584   [8]  60 02 1A 00 00 00 00 00
  can1  080   [0] 
  can1  283   [8]  99 17 00 00 00 00 00 00
  can1  281   [8]  68 CD FF FF 36 FC FF FF
  can1  282   [8]  51 F4 FF FF 00 00 00 00
  can1  284   [8]  C8 12 00 00 00 00 00 00
  can1  381   [2]  00 00
  can1  382   [2]  00 00
  can1  383   [2]  00 00
  can1  604   [8]  2F 02 18 02 01 00 00 00
  can1  584   [8]  60 02 18 02 00 00 00 00
  can1  080   [0] 
  can1  283   [8]  99 17 00 00 00 00 00 00
  can1  281   [8]  68 CD FF FF 00 00 00 00
  can1  282   [8]  51 F4 FF FF 00 00 00 00
  can1  284   [8]  C8 12 00 00 00 00 00 00
  can1  383   [2]  00 00
  can1  381   [2]  04 00
  can1  382   [2]  04 00
  can1  604   [8]  23 02 1A 01 10 00 77 60
  can1  584   [8]  60 02 1A 01 00 00 00 00
  can1  080   [0] 
  can1  283   [8]  99 17 00 00 00 00 00 00
  can1  281   [8]  68 CD FF FF 00 00 00 00
  can1  282   [8]  51 F4 FF FF 00 00 00 00
  can1  284   [8]  C8 12 00 00 00 00 00 00
  can1  381   [2]  00 00
  can1  382   [2]  00 00
  can1  383   [2]  00 00
  can1  584   [8]  60 02 1A 00 00 00 00 00
  can1  604   [8]  2F 02 1A 00 01 00 00 00
  can1  080   [0] 
  can1  283   [8]  99 17 00 00 00 00 00 00
  can1  281   [8]  68 CD FF FF 5B FF FF FF
  can1  282   [8]  51 F4 FF FF 00 00 00 00
  can1  284   [8]  C8 12 00 00 00 00 00 00
  can1  381   [2]  00 00
  can1  382   [2]  00 00
  can1  383   [2]  00 00
  can1  604   [8]  23 02 18 01 84 03 00 00
  can1  584   [8]  60 02 18 01 00 00 00 00
  can1  080   [0] 
  can1  283   [8]  99 17 00 00 00 00 00 00
  can1  281   [8]  68 CD FF FF AA 05 00 00
  can1  282   [8]  51 F4 FF FF 00 00 00 00
  can1  284   [8]  C8 12 00 00 00 00 00 00
  can1  382   [2]  04 00
  can1  381   [2]  04 00
  can1  383   [2]  00 00
  can1  384   [2]  00 00
  can1  604   [8]  23 00 14 01 04 02 00 80
  can1  584   [8]  60 00 14 01 00 00 00 00
  can1  080   [0] 
  can1  282   [8]  51 F4 FF FF 00 00 00 00
  can1  281   [8]  68 CD FF FF 00 00 00 00
  can1  283   [8]  99 17 00 00 00 00 00 00
  can1  284   [8]  C8 12 00 00 00 00 00 00
  can1  381   [2]  00 00
  can1  382   [2]  00 00
  can1  383   [2]  00 00
  can1  384   [2]  04 00
  can1  080   [0] 
  can1  282   [8]  51 F4 FF FF 00 00 00 00
  can1  281   [8]  67 CD FF FF DD F8 FF FF
  can1  283   [8]  99 17 00 00 00 00 00 00
  can1  284   [8]  C8 12 00 00 00 00 00 00
  can1  381   [2]  FC FF
  can1  382   [2]  00 00
  can1  383   [2]  00 00
  can1  384   [2]  00 00
  can1  604   [8]  2F 00 16 00 00 00 00 00
  can1  584   [8]  60 00 16 00 00 00 00 00
  can1  080   [0] 
  can1  281   [8]  68 CD FF FF 1A 02 00 00
  can1  282   [8]  51 F4 FF FF 00 00 00 00
  can1  283   [8]  99 17 00 00 00 00 00 00
  can1  284   [8]  C8 12 00 00 00 00 00 00
  can1  381   [2]  00 00
  can1  382   [2]  00 00
  can1  383   [2]  FC FF
  can1  384   [2]  00 00
  can1  604   [8]  2F 00 14 02 FF 00 00 00
  can1  584   [8]  60 00 14 02 00 00 00 00
  can1  080   [0] 
  can1  283   [8]  99 17 00 00 00 00 00 00
  can1  281   [8]  68 CD FF FF 00 00 00 00
  can1  282   [8]  51 F4 FF FF 00 00 00 00
  can1  284   [8]  C8 12 00 00 00 00 00 00
  can1  382   [2]  00 00
  can1  381   [2]  FC FF
  can1  383   [2]  00 00
  can1  384   [2]  00 00
  can1  604   [8]  23 00 16 01 10 00 40 60
  can1  584   [8]  60 00 16 01 00 00 00 00
  can1  080   [0] 
  can1  283   [8]  99 17 00 00 00 00 00 00
  can1  282   [8]  51 F4 FF FF 00 00 00 00
  can1  281   [8]  68 CD FF FF 00 00 00 00
  can1  284   [8]  C8 12 00 00 00 00 00 00
  can1  381   [2]  00 00
  can1  382   [2]  00 00
  can1  383   [2]  00 00
  can1  384   [2]  00 00
  can1  584   [8]  60 00 16 00 00 00 00 00
  can1  604   [8]  2F 00 16 00 01 00 00 00
  can1  080   [0] 
  can1  283   [8]  99 17 00 00 00 00 00 00
  can1  282   [8]  51 F4 FF FF 00 00 00 00
  can1  281   [8]  68 CD FF FF 00 00 00 00
  can1  284   [8]  C8 12 00 00 00 00 00 00
  can1  382   [2]  00 00
  can1  381   [2]  FC FF
  can1  383   [2]  00 00
  can1  384   [2]  00 00
  can1  584   [8]  60 00 14 01 00 00 00 00
  can1  604   [8]  23 00 14 01 04 02 00 00
  can1  080   [0] 
  can1  283   [8]  99 17 00 00 00 00 00 00
  can1  281   [8]  68 CD FF FF BA FE FF FF
  can1  282   [8]  51 F4 FF FF 00 00 00 00
  can1  284   [8]  C7 12 00 00 82 FB FF FF
  can1  382   [2]  00 00
  can1  381   [2]  FC FF
  can1  383   [2]  00 00
  can1  384   [2]  00 00
  can1  604   [8]  23 01 14 01 04 03 00 80
  can1  584   [8]  60 01 14 01 00 00 00 00
  can1  080   [0] 
  can1  282   [8]  51 F4 FF FF 00 00 00 00
  can1  281   [8]  68 CD FF FF 00 00 00 00
  can1  283   [8]  99 17 00 00 00 00 00 00
  can1  284   [8]  C7 12 00 00 00 00 00 00
  can1  381   [2]  00 00
  can1  382   [2]  00 00
  can1  383   [2]  00 00
  can1  384   [2]  04 00
  can1  604   [8]  2F 01 16 00 00 00 00 00
  can1  584   [8]  60 01 16 00 00 00 00 00
  can1  080   [0] 
  can1  283   [8]  99 17 00 00 00 00 00 00
  can1  281   [8]  68 CD FF FF 00 00 00 00
  can1  282   [8]  51 F4 FF FF 00 00 00 00
  can1  284   [8]  C7 12 00 00 00 00 00 00
  can1  382   [2]  00 00
  can1  381   [2]  FC FF
  can1  383   [2]  00 00
  can1  384   [2]  00 00
  can1  604   [8]  2F 01 14 02 FF 00 00 00
  can1  584   [8]  60 01 14 02 00 00 00 00
  can1  080   [0] 
  can1  283   [8]  99 17 00 00 00 00 00 00
  can1  282   [8]  51 F4 FF FF 00 00 00 00
  can1  281   [8]  68 CD FF FF 00 00 00 00
  can1  284   [8]  C7 12 00 00 00 00 00 00
  can1  381   [2]  00 00
  can1  382   [2]  00 00
  can1  383   [2]  04 00
  can1  384   [2]  00 00
  can1  584   [8]  60 01 16 01 00 00 00 00
  can1  604   [8]  23 01 16 01 20 00 7A 60
  can1  080   [0] 
  can1  283   [8]  99 17 00 00 00 00 00 00
  can1  282   [8]  51 F4 FF FF 00 00 00 00
  can1  281   [8]  68 CD FF FF AC 00 00 00
  can1  284   [8]  C7 12 00 00 00 00 00 00
  can1  383   [2]  00 00
  can1  381   [2]  FC FF
  can1  382   [2]  04 00
  can1  384   [2]  00 00
  can1  604   [8]  2F 01 16 00 01 00 00 00
  can1  584   [8]  60 01 16 00 00 00 00 00
  can1  080   [0] 
  can1  283   [8]  99 17 00 00 00 00 00 00
  can1  281   [8]  68 CD FF FF 00 00 00 00
  can1  282   [8]  51 F4 FF FF 00 00 00 00
  can1  284   [8]  C7 12 00 00 00 00 00 00
  can1  381   [2]  00 00
  can1  382   [2]  00 00
  can1  383   [2]  00 00
  can1  384   [2]  00 00
  can1  604   [8]  23 01 14 01 04 03 00 00
  can1  584   [8]  60 01 14 01 00 00 00 00
  can1  080   [0] 
  can1  282   [8]  51 F4 FF FF 00 00 00 00
  can1  281   [8]  68 CD FF FF 00 00 00 00
  can1  283   [8]  99 17 00 00 00 00 00 00
  can1  284   [8]  C7 12 00 00 00 00 00 00
  can1  381   [2]  00 00
  can1  382   [2]  00 00
  can1  383   [2]  00 00
  can1  384   [2]  00 00
  can1  604   [8]  23 02 14 01 04 04 00 80
  can1  080   [0] 
  can1  584   [8]  60 02 14 01 00 00 00 00
  can1  281   [8]  68 CD FF FF 62 FD FF FF
  can1  282   [8]  51 F4 FF FF 00 00 00 00
  can1  283   [8]  99 17 00 00 00 00 00 00
  can1  284   [8]  C7 12 00 00 00 00 00 00
  can1  381   [2]  00 00
  can1  382   [2]  00 00
  can1  383   [2]  00 00
  can1  384   [2]  04 00
  can1  080   [0] 
  can1  283   [8]  99 17 00 00 00 00 00 00
  can1  282   [8]  51 F4 FF FF 00 00 00 00
  can1  281   [8]  68 CD FF FF 00 00 00 00
  can1  284   [8]  C7 12 00 00 00 00 00 00
  can1  381   [2]  00 00
  can1  382   [2]  00 00
  can1  383   [2]  00 00
  can1  384   [2]  FC FF
  can1  604   [8]  2F 02 16 00 00 00 00 00
  can1  584   [8]  60 02 16 00 00 00 00 00
  can1  080   [0] 
  can1  282   [8]  51 F4 FF FF 00 00 00 00
  can1  281   [8]  68 CD FF FF 00 00 00 00
  can1  283   [8]  99 17 00 00 00 00 00 00
  can1  284   [8]  C7 12 00 00 00 00 00 00
  can1  381   [2]  FC FF
  can1  382   [2]  00 00
  can1  383   [2]  00 00
  can1  384   [2]  FC FF
  can1  604   [8]  2F 02 14 02 FF 00 00 00
  can1  584   [8]  60 02 14 02 00 00 00 00
  can1  080   [0] 
  can1  283   [8]  99 17 00 00 00 00 00 00
  can1  281   [8]  68 CD FF FF 00 00 00 00
  can1  282   [8]  51 F4 FF FF 00 00 00 00
  can1  284   [8]  C7 12 00 00 00 00 00 00
  can1  381   [2]  00 00
  can1  382   [2]  00 00
  can1  383   [2]  00 00
  can1  384   [2]  FC FF
  can1  604   [8]  23 02 16 01 20 00 FF 60
  can1  584   [8]  60 02 16 01 00 00 00 00
  can1  080   [0] 
  can1  282   [8]  51 F4 FF FF 00 00 00 00
  can1  281   [8]  68 CD FF FF 00 00 00 00
  can1  283   [8]  99 17 00 00 00 00 00 00
  can1  284   [8]  C7 12 00 00 00 00 00 00
  can1  381   [2]  00 00
  can1  382   [2]  00 00
  can1  383   [2]  00 00
  can1  384   [2]  04 00
  can1  584   [8]  60 02 16 00 00 00 00 00
  can1  604   [8]  2F 02 16 00 01 00 00 00
  can1  080   [0] 
  can1  282   [8]  51 F4 FF FF 00 00 00 00
  can1  281   [8]  68 CD FF FF 64 03 00 00
  can1  283   [8]  99 17 00 00 00 00 00 00
  can1  284   [8]  C7 12 00 00 00 00 00 00
  can1  381   [2]  00 00
  can1  382   [2]  00 00
  can1  383   [2]  00 00
  can1  384   [2]  00 00
  can1  604   [8]  23 02 14 01 04 04 00 00
  can1  584   [8]  60 02 14 01 00 00 00 00
  can1  080   [0] 
  can1  282   [8]  51 F4 FF FF 00 00 00 00
  can1  281   [8]  68 CD FF FF 00 00 00 00
  can1  283   [8]  99 17 00 00 00 00 00 00
  can1  284   [8]  C7 12 00 00 00 00 00 00
  can1  381   [2]  00 00
  can1  382   [2]  04 00
  can1  383   [2]  00 00
  can1  384   [2]  00 00
  can1  604   [8]  23 03 14 01 04 05 00 80
  can1  584   [8]  60 03 14 01 00 00 00 00
  can1  080   [0] 
  can1  283   [8]  99 17 00 00 00 00 00 00
  can1  281   [8]  68 CD FF FF 36 FC FF FF
  can1  282   [8]  51 F4 FF FF 00 00 00 00
  can1  284   [8]  C7 12 00 00 00 00 00 00
  can1  383   [2]  00 00
  can1  381   [2]  FC FF
  can1  382   [2]  04 00
  can1  384   [2]  00 00
  can1  604   [8]  2F 03 16 00 00 00 00 00
  can1  584   [8]  60 03 16 00 00 00 00 00
  can1  080   [0] 
  can1  282   [8]  51 F4 FF FF 00 00 00 00
  can1  281   [8]  68 CD FF FF 00 00 00 00
  can1  283   [8]  99 17 00 00 00 00 00 00
  can1  284   [8]  C7 12 00 00 00 00 00 00
  can1  381   [2]  00 00
  can1  382   [2]  00 00
  can1  383   [2]  00 00
  can1  384   [2]  00 00
  can1  604   [8]  2F 03 14 02 FF 00 00 00
  can1  584   [8]  60 03 14 02 00 00 00 00
  can1  080   [0] 
  can1  282   [8]  51 F4 FF FF 00 00 00 00
  can1  281   [8]  68 CD FF FF 00 00 00 00
  can1  283   [8]  99 17 00 00 00 00 00 00
  can1  284   [8]  C7 12 00 00 00 00 00 00
  can1  381   [2]  00 00
  can1  382   [2]  04 00
  can1  383   [2]  00 00
  can1  384   [2]  00 00
  can1  604   [8]  23 03 16 01 10 00 71 60
  can1  584   [8]  60 03 16 01 00 00 00 00
  can1  080   [0] 
  can1  282   [8]  51 F4 FF FF 00 00 00 00
  can1  281   [8]  68 CD FF FF 00 00 00 00
  can1  283   [8]  99 17 00 00 00 00 00 00
  can1  284   [8]  C7 12 00 00 00 00 00 00
  can1  381   [2]  04 00
  can1  382   [2]  00 00
  can1  383   [2]  00 00
  can1  384   [2]  00 00
  can1  604   [8]  2F 03 16 00 01 00 00 00
  can1  584   [8]  60 03 16 00 00 00 00 00
  can1  080   [0] 
  can1  282   [8]  51 F4 FF FF 00 00 00 00
  can1  281   [8]  68 CD FF FF 00 00 00 00
  can1  283   [8]  99 17 00 00 00 00 00 00
  can1  284   [8]  C7 12 00 00 00 00 00 00
  can1  381   [2]  00 00
  can1  382   [2]  04 00
  can1  383   [2]  00 00
  can1  384   [2]  00 00
  can1  604   [8]  23 03 14 01 04 05 00 00
  can1  584   [8]  60 03 14 01 00 00 00 00
  can1  080   [0] 
  can1  284   [8]  C7 12 00 00 00 00 00 00
  can1  281   [8]  68 CD FF FF 7F FE FF FF
  can1  282   [8]  51 F4 FF FF 00 00 00 00
  can1  283   [8]  99 17 00 00 00 00 00 00
  can1  381   [2]  00 00
  can1  382   [2]  00 00
  can1  383   [2]  00 00
  can1  384   [2]  00 00
  can1  080   [0] 
  can1  211   [1]  00
  can1  284   [8]  C7 12 00 00 00 00 00 00
  can1  281   [8]  68 CD FF FF 00 00 00 00
  can1  282   [8]  51 F4 FF FF 00 00 00 00
  can1  283   [8]  99 17 00 00 00 00 00 00
  can1  381   [2]  04 00
  can1  382   [2]  00 00
  can1  383   [2]  00 00
  can1  384   [2]  FC FF
  can1  080   [0] 
  can1  282   [8]  51 F4 FF FF 00 00 00 00
  can1  281   [8]  68 CD FF FF 00 00 00 00
  can1  283   [8]  99 17 00 00 00 00 00 00
  can1  284   [8]  C7 12 00 00 00 00 00 00
  can1  381   [2]  00 00
  can1  382   [2]  00 00
  can1  383   [2]  00 00
  can1  384   [2]  00 00
  can1  080   [0] 
  can1  282   [8]  51 F4 FF FF 00 00 00 00
  can1  281   [8]  68 CD FF FF 00 00 00 00
  can1  283   [8]  99 17 00 00 00 00 00 00
  can1  284   [8]  C7 12 00 00 00 00 00 00
  can1  381   [2]  00 00
  can1  382   [2]  04 00
  can1  383   [2]  00 00
  can1  384   [2]  FC FF
  can1  080   [0] 
  can1  282   [8]  51 F4 FF FF 00 00 00 00
  can1  281   [8]  68 CD FF FF 33 FE FF FF
  can1  283   [8]  99 17 00 00 00 00 00 00
  can1  284   [8]  C7 12 00 00 00 00 00 00
  can1  381   [2]  00 00
  can1  382   [2]  00 00
  can1  383   [2]  00 00
  can1  384   [2]  00 00
  can1  080   [0] 
  can1  282   [8]  51 F4 FF FF 00 00 00 00
  can1  281   [8]  68 CD FF FF 00 00 00 00
  can1  283   [8]  99 17 00 00 00 00 00 00
  can1  284   [8]  C7 12 00 00 00 00 00 00
  can1  381   [2]  00 00
  can1  382   [2]  04 00
  can1  383   [2]  00 00
  can1  384   [2]  00 00
  can1  764   [1]  05
  can1  080   [0] 
  can1  282   [8]  51 F4 FF FF 00 00 00 00
  can1  281   [8]  68 CD FF FF 00 00 00 00
  can1  283   [8]  99 17 00 00 00 00 00 00
  can1  284   [8]  C7 12 00 00 00 00 00 00
  can1  381   [2]  00 00
  can1  382   [2]  00 00
  can1  383   [2]  00 00
  can1  384   [2]  00 00
  can1  080   [0] 
  can1  282   [8]  51 F4 FF FF 00 00 00 00
  can1  281   [8]  68 CD FF FF 00 00 00 00
  can1  283   [8]  99 17 00 00 00 00 00 00
  can1  284   [8]  C7 12 00 00 00 00 00 00
  can1  381   [2]  00 00
  can1  382   [2]  00 00
  can1  383   [2]  00 00
  can1  384   [2]  FC FF
  can1  080   [0] 
  can1  282   [8]  51 F4 FF FF 00 00 00 00
  can1  281   [8]  68 CD FF FF 00 00 00 00
  can1  283   [8]  99 17 00 00 00 00 00 00
  can1  284   [8]  C7 12 00 00 00 00 00 00
  can1  381   [2]  00 00
  can1  382   [2]  00 00
  can1  383   [2]  00 00
  can1  384   [2]  00 00
  can1  080   [0] 
  can1  282   [8]  51 F4 FF FF 00 00 00 00
  can1  281   [8]  68 CD FF FF 00 00 00 00
  can1  283   [8]  99 17 00 00 00 00 00 00
  can1  284   [8]  C7 12 00 00 00 00 00 00
  can1  381   [2]  00 00
  can1  382   [2]  00 00
  can1  383   [2]  00 00
  can1  384   [2]  00 00
  can1  080   [0] 
  can1  282   [8]  51 F4 FF FF 00 00 00 00
  can1  281   [8]  68 CD FF FF 87 FF FF FF
  can1  283   [8]  99 17 00 00 00 00 00 00
  can1  284   [8]  C7 12 00 00 00 00 00 00
  can1  381   [2]  00 00
  can1  382   [2]  00 00
  can1  383   [2]  FC FF
  can1  384   [2]  FC FF
  can1  080   [0] 
  can1  282   [8]  51 F4 FF FF 00 00 00 00
  can1  281   [8]  68 CD FF FF 00 00 00 00
  can1  283   [8]  99 17 00 00 00 00 00 00
  can1  284   [8]  C7 12 00 00 00 00 00 00
  can1  381   [2]  00 00
  can1  382   [2]  00 00
  can1  383   [2]  00 00
  can1  384   [2]  04 00
  can1  080   [0] 
  can1  282   [8]  51 F4 FF FF 00 00 00 00
  can1  281   [8]  68 CD FF FF 00 00 00 00
  can1  283   [8]  99 17 00 00 00 00 00 00
  can1  284   [8]  C7 12 00 00 00 00 00 00
  can1  381   [2]  FC FF
  can1  382   [2]  04 00
  can1  383   [2]  00 00
  can1  384   [2]  00 00
  can1  080   [0] 
  can1  282   [8]  51 F4 FF FF 00 00 00 00
  can1  281   [8]  68 CD FF FF 00 00 00 00
  can1  283   [8]  99 17 00 00 00 00 00 00
  can1  284   [8]  C7 12 00 00 00 00 00 00
  can1  381   [2]  FC FF
  can1  382   [2]  00 00
  can1  383   [2]  00 00
  can1  384   [2]  00 00
  can1  080   [0] 
  can1  282   [8]  51 F4 FF FF 00 00 00 00
  can1  281   [8]  68 CD FF FF AE 04 00 00
  can1  283   [8]  99 17 00 00 00 00 00 00
  can1  284   [8]  C7 12 00 00 00 00 00 00
  can1  381   [2]  00 00
  can1  382   [2]  00 00
  can1  383   [2]  00 00
  can1  384   [2]  FC FF
  can1  080   [0] 
  can1  282   [8]  51 F4 FF FF 00 00 00 00
  can1  281   [8]  68 CD FF FF 00 00 00 00
  can1  283   [8]  99 17 00 00 00 00 00 00
  can1  284   [8]  C7 12 00 00 00 00 00 00
  can1  381   [2]  00 00
  can1  382   [2]  00 00
  can1  383   [2]  00 00
  can1  384   [2]  00 00
  can1  080   [0] 
  can1  284   [8]  C7 12 00 00 00 00 00 00
  can1  281   [8]  68 CD FF FF 00 00 00 00
  can1  282   [8]  51 F4 FF FF 00 00 00 00
  can1  283   [8]  99 17 00 00 00 00 00 00
  can1  381   [2]  00 00
  can1  382   [2]  04 00
  can1  383   [2]  00 00
  can1  384   [2]  00 00
  can1  080   [0] 
  can1  282   [8]  51 F4 FF FF 00 00 00 00
  can1  281   [8]  68 CD FF FF A5 02 00 00
  can1  283   [8]  99 17 00 00 00 00 00 00
  can1  284   [8]  C7 12 00 00 00 00 00 00
  can1  381   [2]  00 00
  can1  382   [2]  04 00
  can1  383   [2]  04 00
  can1  384   [2]  00 00
  can1  080   [0] 
  can1  284   [8]  C7 12 00 00 00 00 00 00
  can1  281   [8]  68 CD FF FF 00 00 00 00
  can1  282   [8]  51 F4 FF FF 00 00 00 00
  can1  283   [8]  99 17 00 00 00 00 00 00
  can1  381   [2]  00 00
  can1  382   [2]  00 00
  can1  383   [2]  00 00
  can1  384   [2]  FC FF
  can1  080   [0] 
  can1  282   [8]  51 F4 FF FF 00 00 00 00
  can1  281   [8]  68 CD FF FF 00 00 00 00
  can1  283   [8]  99 17 00 00 00 00 00 00
  can1  284   [8]  C7 12 00 00 00 00 00 00
  can1  381   [2]  00 00
  can1  382   [2]  00 00
  can1  383   [2]  00 00
  can1  384   [2]  00 00
  can1  080   [0] 
  can1  284   [8]  C7 12 00 00 00 00 00 00
  can1  281   [8]  68 CD FF FF 00 00 00 00
  can1  282   [8]  51 F4 FF FF 00 00 00 00
  can1  283   [8]  99 17 00 00 00 00 00 00
  can1  381   [2]  00 00
  can1  382   [2]  00 00
  can1  383   [2]  00 00
  can1  384   [2]  00 00
  can1  080   [0] 
  can1  284   [8]  C7 12 00 00 00 00 00 00
  can1  281   [8]  68 CD FF FF 00 00 00 00
  can1  282   [8]  51 F4 FF FF 00 00 00 00
  can1  283   [8]  99 17 00 00 00 00 00 00
  can1  381   [2]  00 00
  can1  382   [2]  04 00
  can1  383   [2]  00 00
  can1  384   [2]  00 00
  can1  080   [0] 
  can1  284   [8]  C7 12 00 00 00 00 00 00
  can1  281   [8]  68 CD FF FF 00 00 00 00
  can1  282   [8]  51 F4 FF FF 00 00 00 00
  can1  283   [8]  99 17 00 00 00 00 00 00
  can1  381   [2]  00 00
  can1  382   [2]  00 00
  can1  383   [2]  00 00
  can1  384   [2]  00 00
  can1  080   [0] 
  can1  284   [8]  C7 12 00 00 00 00 00 00
